(1706000000.000000) vcan0 118#5902A85EBC000000
(1706000000.100000) vcan0 118#5B02A95EBC000000
(1706000000.200000) vcan0 118#6002AB5EBC000000
(1706000000.300000) vcan0 118#6502AC5EBC000000
(1706000000.400000) vcan0 118#6702AE5EBC000000
(1706000000.500000) vcan0 118#6A02AF5EBC000000
(1706000000.600000) vcan0 118#6D02B05EBC000000
(1706000000.700000) vcan0 118#7302B25EBC000000
(1706000000.800000) vcan0 118#7502B35EBC000000
(1706000000.900000) vcan0 118#7B02B45EBC000000
(1706000001.000000) vcan0 118#7F02B65EBC000000
(1706000001.100000) vcan0 118#8102B75EBC000000
(1706000001.200000) vcan0 118#8702B95EBC000000
(1706000001.300000) vcan0 118#8702BA5EBC000000
(1706000001.400000) vcan0 118#8E02BB5EBC000000
(1706000001.500000) vcan0 118#9102BD5EBC000000
(1706000001.600000) vcan0 118#9402BE5EBC000000
(1706000001.700000) vcan0 118#9702C05EBC000000
(1706000001.800000) vcan0 118#9C02C15EBC000000
(1706000001.900000) vcan0 118#A002C25EBC000000
(1706000002.000000) vcan0 118#A202C45EBC000000
(1706000002.100000) vcan0 118#A402C55EBC000000
(1706000002.200000) vcan0 118#A702C75EBC000000
(1706000002.300000) vcan0 118#AA02C85EBC000000
(1706000002.400000) vcan0 118#B002C95EBC000000
(1706000002.500000) vcan0 118#B202CB5EBC000000
(1706000002.600000) vcan0 118#B502CC5EBC000000
(1706000002.700000) vcan0 118#BA02CE5EBC000000
(1706000002.800000) vcan0 118#BB02CF5EBC000000
(1706000002.900000) vcan0 118#BF02D05EBC000000
(1706000003.000000) vcan0 118#C502D25EBC000000
(1706000003.100000) vcan0 118#C702D35EBC000000
(1706000003.200000) vcan0 118#CB02D45EBC000000
(1706000003.300000) vcan0 118#CB02D65EBC000000
(1706000003.400000) vcan0 118#CF02D75EBC000000
(1706000003.500000) vcan0 118#D102D95EBC000000
(1706000003.600000) vcan0 118#D702DA5EBC000000
(1706000003.700000) vcan0 118#D902DB5EBC000000
(1706000003.800000) vcan0 118#DD02DD5EBC000000
(1706000003.900000) vcan0 118#DD02DE5EBC000000
(1706000004.000000) vcan0 118#E102E05EBC000000
(1706000004.100000) vcan0 118#E402E15EBC000000
(1706000004.200000) vcan0 118#E602E25EBC000000
(1706000004.300000) vcan0 118#EB02E45EBC000000
(1706000004.400000) vcan0 118#EA02E55EBC000000
(1706000004.500000) vcan0 118#EC02E65EBC000000
(1706000004.600000) vcan0 118#F202E85EBC000000
(1706000004.700000) vcan0 118#F102E95EBC000000
(1706000004.800000) vcan0 118#F702EB5EBC000000
(1706000004.900000) vcan0 118#F902EC5EBC000000
(1706000005.000000) vcan0 118#F802ED5EBC000000
(1706000005.100000) vcan0 118#FD02EF5EBC000000
(1706000005.200000) vcan0 118#FD02F05EBC000000
(1706000005.300000) vcan0 118#FF02F25EBC000000
(1706000005.400000) vcan0 118#0203F35EBC000000
(1706000005.500000) vcan0 118#0603F45EBC000000
(1706000005.600000) vcan0 118#0603F65EBC000000
(1706000005.700000) vcan0 118#0A03F75EBC000000
(1706000005.800000) vcan0 118#0903F95EBC000000
(1706000005.900000) vcan0 118#0C03FA5EBC000000
(1706000006.000000) vcan0 118#0E03FB5EBC000000
(1706000006.100000) vcan0 118#1003FD5EBC000000
(1706000006.200000) vcan0 118#0E03FE5EBC000000
(1706000006.300000) vcan0 118#1003005FBC000000
(1706000006.400000) vcan0 118#1403015FBC000000
(1706000006.500000) vcan0 118#1303025FBC000000
(1706000006.600000) vcan0 118#1703045FBC000000
(1706000006.700000) vcan0 118#1503055FBC000000
(1706000006.800000) vcan0 118#1603065FBC000000
(1706000006.900000) vcan0 118#1A03085FBC000000
(1706000007.000000) vcan0 118#1A03095FBC000000
(1706000007.100000) vcan0 118#1A030B5FBC000000
(1706000007.200000) vcan0 118#1B030C5FBC000000
(1706000007.300000) vcan0 118#1C030D5FBC000000
(1706000007.400000) vcan0 118#1C030F5FBC000000
(1706000007.500000) vcan0 118#2003105FBC000000
(1706000007.600000) vcan0 118#1E03125FBC000000
(1706000007.700000) vcan0 118#1D03135FBC000000
(1706000007.800000) vcan0 118#1E03145FBC000000
(1706000007.900000) vcan0 118#1E03165FBC000000
(1706000008.000000) vcan0 118#1E03175FBC000000
(1706000008.100000) vcan0 118#1F03185FBC000000
(1706000008.200000) vcan0 118#20031A5FBC000000
(1706000008.300000) vcan0 118#1F031B5FBC000000
(1706000008.400000) vcan0 118#1F031D5FBC000000
(1706000008.500000) vcan0 118#20031E5FBC000000
(1706000008.600000) vcan0 118#20031F5FBC000000
(1706000008.700000) vcan0 118#2003215FBC000000
(1706000008.800000) vcan0 118#1E03225FBC000000
(1706000008.900000) vcan0 118#1F03245FBC000000
(1706000009.000000) vcan0 118#1F03255FBC000000
(1706000009.100000) vcan0 118#2003265FBC000000
(1706000009.200000) vcan0 118#1D03285FBC000000
(1706000009.300000) vcan0 118#1E03295FBC000000
(1706000009.400000) vcan0 118#1B032B5FBC000000
(1706000009.500000) vcan0 118#1B032C5FBC000000
(1706000009.600000) vcan0 118#19032D5FBC000000
(1706000009.700000) vcan0 118#19032F5FBC000000
(1706000009.800000) vcan0 118#1903305FBC000000
(1706000009.900000) vcan0 118#1903325FBC000000
(1706000010.000000) vcan0 118#1803335FBC000000
(1706000010.100000) vcan0 118#1603345FBC000000
(1706000010.200000) vcan0 118#1403365FBC000000
(1706000010.300000) vcan0 118#1203375FBC000000
(1706000010.400000) vcan0 118#1103385FBC000000
(1706000010.500000) vcan0 118#0F033A5FBC000000
(1706000010.600000) vcan0 118#0E033B5FBC000000
(1706000010.700000) vcan0 118#0E033D5FBC000000
(1706000010.800000) vcan0 118#0B033E5FBC000000
(1706000010.900000) vcan0 118#08033F5FBC000000
(1706000011.000000) vcan0 118#0903415FBC000000
(1706000011.100000) vcan0 118#0603425FBC000000
(1706000011.200000) vcan0 118#0203445FBC000000
(1706000011.300000) vcan0 118#0203455FBC000000
(1706000011.400000) vcan0 118#FE02465FBC000000
(1706000011.500000) vcan0 118#FC02485FBC000000
(1706000011.600000) vcan0 118#FC02495FBC000000
(1706000011.700000) vcan0 118#F8024A5FBC000000
(1706000011.800000) vcan0 118#F8024C5FBC000000
(1706000011.900000) vcan0 118#F5024D5FBC000000
(1706000012.000000) vcan0 118#F2024F5FBC000000
(1706000012.100000) vcan0 118#F002505FBC000000
(1706000012.200000) vcan0 118#EC02515FBC000000
(1706000012.300000) vcan0 118#EA02535FBC000000
(1706000012.400000) vcan0 118#E902545FBC000000
(1706000012.500000) vcan0 118#E502565FBC000000
(1706000012.600000) vcan0 118#E102575FBC000000
(1706000012.700000) vcan0 118#E202585FBC000000
(1706000012.800000) vcan0 118#DB025A5FBC000000
(1706000012.900000) vcan0 118#D9025B5FBC000000
(1706000013.000000) vcan0 118#D9025D5FBC000000
(1706000013.100000) vcan0 118#D4025E5FBC000000
(1706000013.200000) vcan0 118#D3025F5FBC000000
(1706000013.300000) vcan0 118#CF02615FBC000000
(1706000013.400000) vcan0 118#CC02625FBC000000
(1706000013.500000) vcan0 118#CA02645FBC000000
(1706000013.600000) vcan0 118#C602655FBC000000
(1706000013.700000) vcan0 118#C102665FBC000000
(1706000013.800000) vcan0 118#BD02685FBC000000
(1706000013.900000) vcan0 118#BB02695FBC000000
(1706000014.000000) vcan0 118#B9026A5FBC000000
(1706000014.100000) vcan0 118#B6026C5FBC000000
(1706000014.200000) vcan0 118#B2026D5FBC000000
(1706000014.300000) vcan0 118#B0026F5FBC000000
(1706000014.400000) vcan0 118#AB02705FBC000000
(1706000014.500000) vcan0 118#A502715FBC000000
(1706000014.600000) vcan0 118#A502735FBC000000
(1706000014.700000) vcan0 118#A102745FBC000000
(1706000014.800000) vcan0 118#9D02765FBC000000
(1706000014.900000) vcan0 118#9802775FBC000000
(1706000015.000000) vcan0 118#9702785FBC000000
(1706000015.100000) vcan0 118#94027A5FBC000000
(1706000015.200000) vcan0 118#8D027B5FBC000000
(1706000015.300000) vcan0 118#8A027C5FBC000000
(1706000015.400000) vcan0 118#88027E5FBC000000
(1706000015.500000) vcan0 118#85027F5FBC000000
(1706000015.600000) vcan0 118#7F02815FBC000000
(1706000015.700000) vcan0 118#7D02825FBC000000
(1706000015.800000) vcan0 118#7802835FBC000000
(1706000015.900000) vcan0 118#7302855FBC000000
(1706000016.000000) vcan0 118#7302865FBC000000
(1706000016.100000) vcan0 118#6F02885FBC000000
(1706000016.200000) vcan0 118#6802895FBC000000
(1706000016.300000) vcan0 118#65028A5FBC000000
(1706000016.400000) vcan0 118#63028C5FBC000000
(1706000016.500000) vcan0 118#60028D5FBC000000
(1706000016.600000) vcan0 118#5C028F5FBC000000
(1706000016.700000) vcan0 118#5802905FBC000000
(1706000016.800000) vcan0 118#5202915FBC000000
(1706000016.900000) vcan0 118#4F02935FBC000000
(1706000017.000000) vcan0 118#4D02945FBC000000
(1706000017.100000) vcan0 118#4602955FBC000000
(1706000017.200000) vcan0 118#4302975FBC000000
(1706000017.300000) vcan0 118#4202985FBC000000
(1706000017.400000) vcan0 118#3D029A5FBC000000
(1706000017.500000) vcan0 118#3B029B5FBC000000
(1706000017.600000) vcan0 118#37029C5FBC000000
(1706000017.700000) vcan0 118#33029E5FBC000000
(1706000017.800000) vcan0 118#2F029F5FBC000000
(1706000017.900000) vcan0 118#2802A15FBC000000
(1706000018.000000) vcan0 118#2702A25FBC000000
(1706000018.100000) vcan0 118#2302A35FBC000000
(1706000018.200000) vcan0 118#1F02A55FBC000000
(1706000018.300000) vcan0 118#1A02A65FBC000000
(1706000018.400000) vcan0 118#1602A85FBC000000
(1706000018.500000) vcan0 118#1402A95FBC000000
(1706000018.600000) vcan0 118#1202AA5FBC000000
(1706000018.700000) vcan0 118#0D02AC5FBC000000
(1706000018.800000) vcan0 118#0A02AD5FBC000000
(1706000018.900000) vcan0 118#0602AE5FBC000000
(1706000019.000000) vcan0 118#0402B05FBC000000
(1706000019.100000) vcan0 118#FF01B15FBC000000
(1706000019.200000) vcan0 118#FC01B35FBC000000
(1706000019.300000) vcan0 118#F701B45FBC000000
(1706000019.400000) vcan0 118#F701B55FBC000000
(1706000019.500000) vcan0 118#F401B75FBC000000
(1706000019.600000) vcan0 118#EE01B85FBC000000
(1706000019.700000) vcan0 118#EA01BA5FBC000000
(1706000019.800000) vcan0 118#E801BB5FBC000000
(1706000019.900000) vcan0 118#E601BC5FBC000000
(1706000020.000000) vcan0 118#E201BE5FBC000000
(1706000020.100000) vcan0 118#DF01BF5FBC000000
(1706000020.200000) vcan0 118#DE01C15FBC000000
(1706000020.300000) vcan0 118#D801C25FBC000000
(1706000020.400000) vcan0 118#D701C35FBC000000
(1706000020.500000) vcan0 118#D501C55FBC000000
(1706000020.600000) vcan0 118#D201C65FBC000000
(1706000020.700000) vcan0 118#CD01C85FBC000000
(1706000020.800000) vcan0 118#CA01C95FBC000000
(1706000020.900000) vcan0 118#CA01CA5FBC000000
(1706000021.000000) vcan0 118#C601CC5FBC000000
(1706000021.100000) vcan0 118#C201CD5FBC000000
(1706000021.200000) vcan0 118#C101CE5FBC000000
(1706000021.300000) vcan0 118#BF01D05FBC000000
(1706000021.400000) vcan0 118#BD01D15FBC000000
(1706000021.500000) vcan0 118#B801D35FBC000000
(1706000021.600000) vcan0 118#B601D45FBC000000
(1706000021.700000) vcan0 118#B601D55FBC000000
(1706000021.800000) vcan0 118#B201D75FBC000000
(1706000021.900000) vcan0 118#B101D85FBC000000
(1706000022.000000) vcan0 118#B001DA5FBC000000
(1706000022.100000) vcan0 118#AE01DB5FBC000000
(1706000022.200000) vcan0 118#AD01DC5FBC000000
(1706000022.300000) vcan0 118#AA01DE5FBC000000
(1706000022.400000) vcan0 118#A901DF5FBC000000
(1706000022.500000) vcan0 118#A701E05FBC000000
(1706000022.600000) vcan0 118#A401E25FBC000000
(1706000022.700000) vcan0 118#A101E35FBC000000
(1706000022.800000) vcan0 118#A201E55FBC000000
(1706000022.900000) vcan0 118#A001E65FBC000000
(1706000023.000000) vcan0 118#9C01E75FBC000000
(1706000023.100000) vcan0 118#9C01E95FBC000000
(1706000023.200000) vcan0 118#9C01EA5FBC000000
(1706000023.300000) vcan0 118#9901EC5FBC000000
(1706000023.400000) vcan0 118#9A01ED5FBC000000
(1706000023.500000) vcan0 118#9801EE5FBC000000
(1706000023.600000) vcan0 118#9701F05FBC000000
(1706000023.700000) vcan0 118#9601F15FBC000000
(1706000023.800000) vcan0 118#9501F35FBC000000
(1706000023.900000) vcan0 118#9601F45FBC000000
(1706000024.000000) vcan0 118#9301F55FBC000000
(1706000024.100000) vcan0 118#9201F75FBC000000
(1706000024.200000) vcan0 118#9401F85FBC000000
(1706000024.300000) vcan0 118#9101FA5FBC000000
(1706000024.400000) vcan0 118#9101FB5FBC000000
(1706000024.500000) vcan0 118#9001FC5FBC000000
(1706000024.600000) vcan0 118#9001FE5FBC000000
(1706000024.700000) vcan0 118#9001FF5FBC000000
(1706000024.800000) vcan0 118#90010060BC000000
(1706000024.900000) vcan0 118#90010260BC000000
(1706000025.000000) vcan0 118#90010360BC000000
(1706000025.100000) vcan0 118#90010560BC000000
(1706000025.200000) vcan0 118#90010660BC000000
(1706000025.300000) vcan0 118#90010760BC000000
(1706000025.400000) vcan0 118#90010960BC000000
(1706000025.500000) vcan0 118#90010A60BC000000
(1706000025.600000) vcan0 118#92010C60BC000000
(1706000025.700000) vcan0 118#93010D60BC000000
(1706000025.800000) vcan0 118#91010E60BC000000
(1706000025.900000) vcan0 118#91011060BC000000
(1706000026.000000) vcan0 118#96011160BC000000
(1706000026.100000) vcan0 118#95011260BC000000
(1706000026.200000) vcan0 118#96011460BC000000
(1706000026.300000) vcan0 118#98011560BC000000
(1706000026.400000) vcan0 118#95011760BC000000
(1706000026.500000) vcan0 118#96011860BC000000
(1706000026.600000) vcan0 118#99011960BC000000
(1706000026.700000) vcan0 118#9B011B60BC000000
(1706000026.800000) vcan0 118#9A011C60BC000000
(1706000026.900000) vcan0 118#9E011E60BC000000
(1706000027.000000) vcan0 118#9F011F60BC000000
(1706000027.100000) vcan0 118#9E012060BC000000
(1706000027.200000) vcan0 118#A0012260BC000000
(1706000027.300000) vcan0 118#A4012360BC000000
(1706000027.400000) vcan0 118#A5012560BC000000
(1706000027.500000) vcan0 118#A7012660BC000000
(1706000027.600000) vcan0 118#A6012760BC000000
(1706000027.700000) vcan0 118#AB012960BC000000
(1706000027.800000) vcan0 118#AA012A60BC000000
(1706000027.900000) vcan0 118#AE012C60BC000000
(1706000028.000000) vcan0 118#AF012D60BC000000
(1706000028.100000) vcan0 118#B1012E60BC000000
(1706000028.200000) vcan0 118#B5013060BC000000
(1706000028.300000) vcan0 118#B4013160BC000000
(1706000028.400000) vcan0 118#B8013260BC000000
(1706000028.500000) vcan0 118#BB013460BC000000
(1706000028.600000) vcan0 118#BD013560BC000000
(1706000028.700000) vcan0 118#BE013760BC000000
(1706000028.800000) vcan0 118#C1013860BC000000
(1706000028.900000) vcan0 118#C3013960BC000000
(1706000029.000000) vcan0 118#C5013B60BC000000
(1706000029.100000) vcan0 118#CA013C60BC000000
(1706000029.200000) vcan0 118#CD013E60BC000000
(1706000029.300000) vcan0 118#CE013F60BC000000
(1706000029.400000) vcan0 118#D0014060BC000000
(1706000029.500000) vcan0 118#D5014260BC000000
(1706000029.600000) vcan0 118#D5014360BC000000
(1706000029.700000) vcan0 118#D9014460BC000000
(1706000029.800000) vcan0 118#DD014660BC000000
(1706000029.900000) vcan0 118#DD014760BC000000
(1706000030.000000) vcan0 118#E1014960BC000000
(1706000030.100000) vcan0 118#E5014A60BC000000
(1706000030.200000) vcan0 118#E9014B60BC000000
(1706000030.300000) vcan0 118#EC014D60BC000000
(1706000030.400000) vcan0 118#ED014E60BC000000
(1706000030.500000) vcan0 118#F3015060BC000000
(1706000030.600000) vcan0 118#F6015160BC000000
(1706000030.700000) vcan0 118#F9015260BC000000
(1706000030.800000) vcan0 118#FD015460BC000000
(1706000030.900000) vcan0 118#00025560BC000000
(1706000031.000000) vcan0 118#02025760BC000000
(1706000031.100000) vcan0 118#05025860BC000000
(1706000031.200000) vcan0 118#0A025960BC000000
(1706000031.300000) vcan0 118#0C025B60BC000000
(1706000031.400000) vcan0 118#11025C60BC000000
(1706000031.500000) vcan0 118#16025E60BC000000
(1706000031.600000) vcan0 118#17025F60BC000000
(1706000031.700000) vcan0 118#1A026060BC000000
(1706000031.800000) vcan0 118#1E026260BC000000
(1706000031.900000) vcan0 118#23026360BC000000
(1706000032.000000) vcan0 118#28026460BC000000
(1706000032.100000) vcan0 118#2B026660BC000000
(1706000032.200000) vcan0 118#2F026760BC000000
(1706000032.300000) vcan0 118#33026960BC000000
(1706000032.400000) vcan0 118#35026A60BC000000
(1706000032.500000) vcan0 118#37026B60BC000000
(1706000032.600000) vcan0 118#3E026D60BC000000
(1706000032.700000) vcan0 118#41026E60BC000000
(1706000032.800000) vcan0 118#42027060BC000000
(1706000032.900000) vcan0 118#46027160BC000000
(1706000033.000000) vcan0 118#4C027260BC000000
(1706000033.100000) vcan0 118#51027460BC000000
(1706000033.200000) vcan0 118#54027560BC000000
(1706000033.300000) vcan0 118#58027660BC000000
(1706000033.400000) vcan0 118#5B027860BC000000
(1706000033.500000) vcan0 118#5E027960BC000000
(1706000033.600000) vcan0 118#64027B60BC000000
(1706000033.700000) vcan0 118#66027C60BC000000
(1706000033.800000) vcan0 118#6B027D60BC000000
(1706000033.900000) vcan0 118#6C027F60BC000000
(1706000034.000000) vcan0 118#72028060BC000000
(1706000034.100000) vcan0 118#73028260BC000000
(1706000034.200000) vcan0 118#77028360BC000000
(1706000034.300000) vcan0 118#7D028460BC000000
(1706000034.400000) vcan0 118#7F028660BC000000
(1706000034.500000) vcan0 118#84028760BC000000
(1706000034.600000) vcan0 118#88028960BC000000
(1706000034.700000) vcan0 118#8C028A60BC000000
(1706000034.800000) vcan0 118#8F028B60BC000000
(1706000034.900000) vcan0 118#92028D60BC000000
(1706000035.000000) vcan0 118#96028E60BC000000
(1706000035.100000) vcan0 118#9B029060BC000000
(1706000035.200000) vcan0 118#9C029160BC000000
(1706000035.300000) vcan0 118#A1029260BC000000
(1706000035.400000) vcan0 118#A3029460BC000000
(1706000035.500000) vcan0 118#A8029560BC000000
(1706000035.600000) vcan0 118#AD029660BC000000
(1706000035.700000) vcan0 118#AE029860BC000000
(1706000035.800000) vcan0 118#B0029960BC000000
(1706000035.900000) vcan0 118#B4029B60BC000000
(1706000036.000000) vcan0 118#B7029C60BC000000
(1706000036.100000) vcan0 118#BD029D60BC000000
(1706000036.200000) vcan0 118#C1029F60BC000000
(1706000036.300000) vcan0 118#C302A060BC000000
(1706000036.400000) vcan0 118#C302A260BC000000
(1706000036.500000) vcan0 118#C802A360BC000000
(1706000036.600000) vcan0 118#CD02A460BC000000
(1706000036.700000) vcan0 118#CF02A660BC000000
(1706000036.800000) vcan0 118#D202A760BC000000
(1706000036.900000) vcan0 118#D402A860BC000000
(1706000037.000000) vcan0 118#D802AA60BC000000
(1706000037.100000) vcan0 118#DA02AB60BC000000
(1706000037.200000) vcan0 118#DC02AD60BC000000
(1706000037.300000) vcan0 118#E102AE60BC000000
(1706000037.400000) vcan0 118#E302AF60BC000000
(1706000037.500000) vcan0 118#E502B160BC000000
(1706000037.600000) vcan0 118#E802B260BC000000
(1706000037.700000) vcan0 118#ED02B460BC000000
(1706000037.800000) vcan0 118#ED02B560BC000000
(1706000037.900000) vcan0 118#EE02B660BC000000
(1706000038.000000) vcan0 118#F302B860BC000000
(1706000038.100000) vcan0 118#F602B960BC000000
(1706000038.200000) vcan0 118#F702BB60BC000000
(1706000038.300000) vcan0 118#F902BC60BC000000
(1706000038.400000) vcan0 118#FA02BD60BC000000
(1706000038.500000) vcan0 118#FE02BF60BC000000
(1706000038.600000) vcan0 118#FE02C060BC000000
(1706000038.700000) vcan0 118#0203C260BC000000
(1706000038.800000) vcan0 118#0503C360BC000000
(1706000038.900000) vcan0 118#0503C460BC000000
(1706000039.000000) vcan0 118#0903C660BC000000
(1706000039.100000) vcan0 118#0A03C760BC000000
(1706000039.200000) vcan0 118#0A03C860BC000000
(1706000039.300000) vcan0 118#0E03CA60BC000000
(1706000039.400000) vcan0 118#0E03CB60BC000000
(1706000039.500000) vcan0 118#1103CD60BC000000
(1706000039.600000) vcan0 118#1303CE60BC000000
(1706000039.700000) vcan0 118#1203CF60BC000000
(1706000039.800000) vcan0 118#1303D160BC000000
(1706000039.900000) vcan0 118#1503D260BC000000
(1706000040.000000) vcan0 118#1503D460BC000000
(1706000040.100000) vcan0 118#1803D560BC000000
(1706000040.200000) vcan0 118#1803D660BC000000
(1706000040.300000) vcan0 118#1A03D860BC000000
(1706000040.400000) vcan0 118#1B03D960BC000000
(1706000040.500000) vcan0 118#1B03DA60BC000000
(1706000040.600000) vcan0 118#1B03DC60BC000000
(1706000040.700000) vcan0 118#1D03DD60BC000000
(1706000040.800000) vcan0 118#1E03DF60BC000000
(1706000040.900000) vcan0 118#1F03E060BC000000
(1706000041.000000) vcan0 118#2003E160BC000000
(1706000041.100000) vcan0 118#2003E360BC000000
(1706000041.200000) vcan0 118#2003E460BC000000
(1706000041.300000) vcan0 118#1E03E660BC000000
(1706000041.400000) vcan0 118#2003E760BC000000
(1706000041.500000) vcan0 118#2003E860BC000000
(1706000041.600000) vcan0 118#2003EA60BC000000
(1706000041.700000) vcan0 118#2003EB60BC000000
(1706000041.800000) vcan0 118#2003ED60BC000000
(1706000041.900000) vcan0 118#2003EE60BC000000
(1706000042.000000) vcan0 118#1F03EF60BC000000
(1706000042.100000) vcan0 118#2003F160BC000000
(1706000042.200000) vcan0 118#2003F260BC000000
(1706000042.300000) vcan0 118#1E03F460BC000000
(1706000042.400000) vcan0 118#1F03F560BC000000
(1706000042.500000) vcan0 118#1F03F660BC000000
(1706000042.600000) vcan0 118#1B03F860BC000000
(1706000042.700000) vcan0 118#1E03F960BC000000
(1706000042.800000) vcan0 118#1C03FA60BC000000
(1706000042.900000) vcan0 118#1903FC60BC000000
(1706000043.000000) vcan0 118#1B03FD60BC000000
(1706000043.100000) vcan0 118#1A03FF60BC000000
(1706000043.200000) vcan0 118#16030061BC000000
(1706000043.300000) vcan0 118#16030161BC000000
(1706000043.400000) vcan0 118#14030361BC000000
(1706000043.500000) vcan0 118#14030461BC000000
(1706000043.600000) vcan0 118#12030661BC000000
(1706000043.700000) vcan0 118#13030761BC000000
(1706000043.800000) vcan0 118#0F030861BC000000
(1706000043.900000) vcan0 118#0D030A61BC000000
(1706000044.000000) vcan0 118#0C030B61BC000000
(1706000044.100000) vcan0 118#09030C61BC000000
(1706000044.200000) vcan0 118#0B030E61BC000000
(1706000044.300000) vcan0 118#06030F61BC000000
(1706000044.400000) vcan0 118#05031161BC000000
(1706000044.500000) vcan0 118#05031261BC000000
(1706000044.600000) vcan0 118#01031361BC000000
(1706000044.700000) vcan0 118#FF021561BC000000
(1706000044.800000) vcan0 118#FE021661BC000000
(1706000044.900000) vcan0 118#FC021861BC000000
(1706000045.000000) vcan0 118#FC021961BC000000
(1706000045.100000) vcan0 118#F9021A61BC000000
(1706000045.200000) vcan0 118#F4021C61BC000000
(1706000045.300000) vcan0 118#F4021D61BC000000
(1706000045.400000) vcan0 118#EF021F61BC000000
(1706000045.500000) vcan0 118#EE022061BC000000
(1706000045.600000) vcan0 118#EB022161BC000000
(1706000045.700000) vcan0 118#E9022361BC000000
(1706000045.800000) vcan0 118#E7022461BC000000
(1706000045.900000) vcan0 118#E4022661BC000000
(1706000046.000000) vcan0 118#E2022761BC000000
(1706000046.100000) vcan0 118#DF022861BC000000
(1706000046.200000) vcan0 118#DC022A61BC000000
(1706000046.300000) vcan0 118#D8022B61BC000000
(1706000046.400000) vcan0 118#D6022C61BC000000
(1706000046.500000) vcan0 118#D2022E61BC000000
(1706000046.600000) vcan0 118#CE022F61BC000000
(1706000046.700000) vcan0 118#CD023161BC000000
(1706000046.800000) vcan0 118#CA023261BC000000
(1706000046.900000) vcan0 118#C8023361BC000000
(1706000047.000000) vcan0 118#C4023561BC000000
(1706000047.100000) vcan0 118#C1023661BC000000
(1706000047.200000) vcan0 118#BC023861BC000000
(1706000047.300000) vcan0 118#BB023961BC000000
(1706000047.400000) vcan0 118#B8023A61BC000000
(1706000047.500000) vcan0 118#B4023C61BC000000
(1706000047.600000) vcan0 118#B1023D61BC000000
(1706000047.700000) vcan0 118#AB023E61BC000000
(1706000047.800000) vcan0 118#A7024061BC000000
(1706000047.900000) vcan0 118#A5024161BC000000
(1706000048.000000) vcan0 118#A2024361BC000000
(1706000048.100000) vcan0 118#9F024461BC000000
(1706000048.200000) vcan0 118#99024561BC000000
(1706000048.300000) vcan0 118#95024761BC000000
(1706000048.400000) vcan0 118#94024861BC000000
(1706000048.500000) vcan0 118#8F024A61BC000000
(1706000048.600000) vcan0 118#8D024B61BC000000
(1706000048.700000) vcan0 118#88024C61BC000000
(1706000048.800000) vcan0 118#83024E61BC000000
(1706000048.900000) vcan0 118#80024F61BC000000
(1706000049.000000) vcan0 118#7C025161BC000000
(1706000049.100000) vcan0 118#78025261BC000000
(1706000049.200000) vcan0 118#77025361BC000000
(1706000049.300000) vcan0 118#74025561BC000000
(1706000049.400000) vcan0 118#70025661BC000000
(1706000049.500000) vcan0 118#6A025861BC000000
(1706000049.600000) vcan0 118#67025961BC000000
(1706000049.700000) vcan0 118#65025A61BC000000
(1706000049.800000) vcan0 118#5F025C61BC000000
(1706000049.900000) vcan0 118#5E025D61BC000000
(1706000050.000000) vcan0 118#56025E61BC000000
(1706000050.100000) vcan0 118#54026061BC000000
(1706000050.200000) vcan0 118#50026161BC000000
(1706000050.300000) vcan0 118#4B026361BC000000
(1706000050.400000) vcan0 118#4A026461BC000000
(1706000050.500000) vcan0 118#46026561BC000000
(1706000050.600000) vcan0 118#42026761BC000000
(1706000050.700000) vcan0 118#3F026861BC000000
(1706000050.800000) vcan0 118#38026A61BC000000
(1706000050.900000) vcan0 118#35026B61BC000000
(1706000051.000000) vcan0 118#31026C61BC000000
(1706000051.100000) vcan0 118#30026E61BC000000
(1706000051.200000) vcan0 118#2A026F61BC000000
(1706000051.300000) vcan0 118#25027061BC000000
(1706000051.400000) vcan0 118#22027261BC000000
(1706000051.500000) vcan0 118#1F027361BC000000
(1706000051.600000) vcan0 118#1D027561BC000000
(1706000051.700000) vcan0 118#17027661BC000000
(1706000051.800000) vcan0 118#14027761BC000000
(1706000051.900000) vcan0 118#11027961BC000000
(1706000052.000000) vcan0 118#0F027A61BC000000
(1706000052.100000) vcan0 118#0C027C61BC000000
(1706000052.200000) vcan0 118#09027D61BC000000
(1706000052.300000) vcan0 118#02027E61BC000000
(1706000052.400000) vcan0 118#02028061BC000000
(1706000052.500000) vcan0 118#FE018161BC000000
(1706000052.600000) vcan0 118#FA018361BC000000
(1706000052.700000) vcan0 118#F8018461BC000000
(1706000052.800000) vcan0 118#F3018561BC000000
(1706000052.900000) vcan0 118#F1018761BC000000
(1706000053.000000) vcan0 118#EE018861BC000000
(1706000053.100000) vcan0 118#E8018A61BC000000
(1706000053.200000) vcan0 118#E5018B61BC000000
(1706000053.300000) vcan0 118#E4018C61BC000000
(1706000053.400000) vcan0 118#E0018E61BC000000
(1706000053.500000) vcan0 118#DE018F61BC000000
(1706000053.600000) vcan0 118#DB019061BC000000
(1706000053.700000) vcan0 118#D8019261BC000000
(1706000053.800000) vcan0 118#D5019361BC000000
(1706000053.900000) vcan0 118#D3019561BC000000
(1706000054.000000) vcan0 118#CF019661BC000000
(1706000054.100000) vcan0 118#CC019761BC000000
(1706000054.200000) vcan0 118#C9019961BC000000
(1706000054.300000) vcan0 118#C7019A61BC000000
(1706000054.400000) vcan0 118#C4019C61BC000000
(1706000054.500000) vcan0 118#C4019D61BC000000
(1706000054.600000) vcan0 118#C1019E61BC000000
(1706000054.700000) vcan0 118#BB01A061BC000000
(1706000054.800000) vcan0 118#BC01A161BC000000
(1706000054.900000) vcan0 118#B901A261BC000000
(1706000055.000000) vcan0 118#B601A461BC000000
(1706000055.100000) vcan0 118#B301A561BC000000
(1706000055.200000) vcan0 118#B301A761BC000000
(1706000055.300000) vcan0 118#B101A861BC000000
(1706000055.400000) vcan0 118#AE01A961BC000000
(1706000055.500000) vcan0 118#AC01AB61BC000000
(1706000055.600000) vcan0 118#AB01AC61BC000000
(1706000055.700000) vcan0 118#A701AE61BC000000
(1706000055.800000) vcan0 118#A601AF61BC000000
(1706000055.900000) vcan0 118#A501B061BC000000
(1706000056.000000) vcan0 118#A401B261BC000000
(1706000056.100000) vcan0 118#A301B361BC000000
(1706000056.200000) vcan0 118#A101B561BC000000
(1706000056.300000) vcan0 118#A001B661BC000000
(1706000056.400000) vcan0 118#9C01B761BC000000
(1706000056.500000) vcan0 118#9D01B961BC000000
(1706000056.600000) vcan0 118#9A01BA61BC000000
(1706000056.700000) vcan0 118#9B01BC61BC000000
(1706000056.800000) vcan0 118#9801BD61BC000000
(1706000056.900000) vcan0 118#9801BE61BC000000
(1706000057.000000) vcan0 118#9701C061BC000000
(1706000057.100000) vcan0 118#9501C161BC000000
(1706000057.200000) vcan0 118#9401C261BC000000
(1706000057.300000) vcan0 118#9501C461BC000000
(1706000057.400000) vcan0 118#9101C561BC000000
(1706000057.500000) vcan0 118#9101C761BC000000
(1706000057.600000) vcan0 118#9301C861BC000000
(1706000057.700000) vcan0 118#9201C961BC000000
(1706000057.800000) vcan0 118#9101CB61BC000000
(1706000057.900000) vcan0 118#9201CC61BC000000
(1706000058.000000) vcan0 118#9001CE61BC000000
(1706000058.100000) vcan0 118#9101CF61BC000000
(1706000058.200000) vcan0 118#9101D061BC000000
(1706000058.300000) vcan0 118#9001D261BC000000
(1706000058.400000) vcan0 118#9001D361BC000000
(1706000058.500000) vcan0 118#9001D461BC000000
(1706000058.600000) vcan0 118#9001D661BC000000
(1706000058.700000) vcan0 118#9001D761BC000000
(1706000058.800000) vcan0 118#9001D961BC000000
(1706000058.900000) vcan0 118#9201DA61BC000000
(1706000059.000000) vcan0 118#9301DB61BC000000
(1706000059.100000) vcan0 118#9001DD61BC000000
(1706000059.200000) vcan0 118#9101DE61BC000000
(1706000059.300000) vcan0 118#9501E061BC000000
(1706000059.400000) vcan0 118#9401E161BC000000
(1706000059.500000) vcan0 118#9601E261BC000000
(1706000059.600000) vcan0 118#9401E461BC000000
(1706000059.700000) vcan0 118#9601E561BC000000
(1706000059.800000) vcan0 118#9801E761BC000000
(1706000059.900000) vcan0 118#9A01E861BC000000
(1706000000.000000) vcan0 261#7B07800000000000
(1706000000.100000) vcan0 261#9207800000000000
(1706000000.200000) vcan0 261#AC07800000000000
(1706000000.300000) vcan0 261#CC07800000000000
(1706000000.400000) vcan0 261#E707800000000000
(1706000000.500000) vcan0 261#0708800000000000
(1706000000.600000) vcan0 261#4C08800000000000
(1706000000.700000) vcan0 261#6608800000000000
(1706000000.800000) vcan0 261#8B08800000000000
(1706000000.900000) vcan0 261#8F08800000000000
(1706000001.000000) vcan0 261#C408800000000000
(1706000001.100000) vcan0 261#E708800000000000
(1706000001.200000) vcan0 261#0D09800000000000
(1706000001.300000) vcan0 261#2C09800000000000
(1706000001.400000) vcan0 261#3E09800000000000
(1706000001.500000) vcan0 261#6209800000000000
(1706000001.600000) vcan0 261#8309800000000000
(1706000001.700000) vcan0 261#A209800000000000
(1706000001.800000) vcan0 261#A609800000000000
(1706000001.900000) vcan0 261#CE09800000000000
(1706000002.000000) vcan0 261#DF09800000000000
(1706000002.100000) vcan0 261#060A800000000000
(1706000002.200000) vcan0 261#160A810000000000
(1706000002.300000) vcan0 261#310A810000000000
(1706000002.400000) vcan0 261#6D0A800000000000
(1706000002.500000) vcan0 261#760A800000000000
(1706000002.600000) vcan0 261#900A810000000000
(1706000002.700000) vcan0 261#B70A810000000000
(1706000002.800000) vcan0 261#C90A810000000000
(1706000002.900000) vcan0 261#C90A810000000000
(1706000003.000000) vcan0 261#D70A800000000000
(1706000003.100000) vcan0 261#E80A810000000000
(1706000003.200000) vcan0 261#060B810000000000
(1706000003.300000) vcan0 261#1F0B810000000000
(1706000003.400000) vcan0 261#250B810000000000
(1706000003.500000) vcan0 261#3D0B810000000000
(1706000003.600000) vcan0 261#400B810000000000
(1706000003.700000) vcan0 261#540B810000000000
(1706000003.800000) vcan0 261#640B810000000000
(1706000003.900000) vcan0 261#840B810000000000
(1706000004.000000) vcan0 261#6F0B810000000000
(1706000004.100000) vcan0 261#940B810000000000
(1706000004.200000) vcan0 261#9F0B810000000000
(1706000004.300000) vcan0 261#AF0B810000000000
(1706000004.400000) vcan0 261#9D0B810000000000
(1706000004.500000) vcan0 261#9B0B810000000000
(1706000004.600000) vcan0 261#B80B810000000000
(1706000004.700000) vcan0 261#AE0B810000000000
(1706000004.800000) vcan0 261#B80B810000000000
(1706000004.900000) vcan0 261#B20B810000000000
(1706000005.000000) vcan0 261#B80B810000000000
(1706000005.100000) vcan0 261#B80B810000000000
(1706000005.200000) vcan0 261#B80B810000000000
(1706000005.300000) vcan0 261#B80B810000000000
(1706000005.400000) vcan0 261#A90B810000000000
(1706000005.500000) vcan0 261#9C0B810000000000
(1706000005.600000) vcan0 261#B80B810000000000
(1706000005.700000) vcan0 261#910B810000000000
(1706000005.800000) vcan0 261#830B810000000000
(1706000005.900000) vcan0 261#7B0B810000000000
(1706000006.000000) vcan0 261#910B810000000000
(1706000006.100000) vcan0 261#630B810000000000
(1706000006.200000) vcan0 261#760B810000000000
(1706000006.300000) vcan0 261#580B810000000000
(1706000006.400000) vcan0 261#5E0B810000000000
(1706000006.500000) vcan0 261#4E0B810000000000
(1706000006.600000) vcan0 261#2D0B810000000000
(1706000006.700000) vcan0 261#270B810000000000
(1706000006.800000) vcan0 261#0A0B810000000000
(1706000006.900000) vcan0 261#050B810000000000
(1706000007.000000) vcan0 261#E70A810000000000
(1706000007.100000) vcan0 261#DF0A810000000000
(1706000007.200000) vcan0 261#CA0A810000000000
(1706000007.300000) vcan0 261#B90A820000000000
(1706000007.400000) vcan0 261#8C0A810000000000
(1706000007.500000) vcan0 261#710A810000000000
(1706000007.600000) vcan0 261#720A820000000000
(1706000007.700000) vcan0 261#510A810000000000
(1706000007.800000) vcan0 261#1E0A820000000000
(1706000007.900000) vcan0 261#1F0A820000000000
(1706000008.000000) vcan0 261#E109820000000000
(1706000008.100000) vcan0 261#E609820000000000
(1706000008.200000) vcan0 261#C509820000000000
(1706000008.300000) vcan0 261#AE09820000000000
(1706000008.400000) vcan0 261#7B09820000000000
(1706000008.500000) vcan0 261#5309820000000000
(1706000008.600000) vcan0 261#3A09820000000000
(1706000008.700000) vcan0 261#0D09820000000000
(1706000008.800000) vcan0 261#F508820000000000
(1706000008.900000) vcan0 261#DB08820000000000
(1706000009.000000) vcan0 261#D308820000000000
(1706000009.100000) vcan0 261#A508820000000000
(1706000009.200000) vcan0 261#6E08820000000000
(1706000009.300000) vcan0 261#6A08820000000000
(1706000009.400000) vcan0 261#2A08820000000000
(1706000009.500000) vcan0 261#1608820000000000
(1706000009.600000) vcan0 261#E307820000000000
(1706000009.700000) vcan0 261#E207820000000000
(1706000009.800000) vcan0 261#BB07820000000000
(1706000009.900000) vcan0 261#7D07820000000000
(1706000010.000000) vcan0 261#6307820000000000
(1706000010.100000) vcan0 261#4607820000000000
(1706000010.200000) vcan0 261#2507820000000000
(1706000010.300000) vcan0 261#1607820000000000
(1706000010.400000) vcan0 261#CD06820000000000
(1706000010.500000) vcan0 261#B506820000000000
(1706000010.600000) vcan0 261#9B06820000000000
(1706000010.700000) vcan0 261#7106820000000000
(1706000010.800000) vcan0 261#6206820000000000
(1706000010.900000) vcan0 261#4E06820000000000
(1706000011.000000) vcan0 261#1906820000000000
(1706000011.100000) vcan0 261#0D06820000000000
(1706000011.200000) vcan0 261#D205820000000000
(1706000011.300000) vcan0 261#BD05820000000000
(1706000011.400000) vcan0 261#8D05820000000000
(1706000011.500000) vcan0 261#8505820000000000
(1706000011.600000) vcan0 261#6405820000000000
(1706000011.700000) vcan0 261#4805820000000000
(1706000011.800000) vcan0 261#1705820000000000
(1706000011.900000) vcan0 261#0405820000000000
(1706000012.000000) vcan0 261#D704820000000000
(1706000012.100000) vcan0 261#C804820000000000
(1706000012.200000) vcan0 261#B504820000000000
(1706000012.300000) vcan0 261#8104820000000000
(1706000012.400000) vcan0 261#7904820000000000
(1706000012.500000) vcan0 261#4E04820000000000
(1706000012.600000) vcan0 261#3604830000000000
(1706000012.700000) vcan0 261#3404830000000000
(1706000012.800000) vcan0 261#1E04820000000000
(1706000012.900000) vcan0 261#1204820000000000
(1706000013.000000) vcan0 261#EC03830000000000
(1706000013.100000) vcan0 261#EE03830000000000
(1706000013.200000) vcan0 261#BB03830000000000
(1706000013.300000) vcan0 261#CA03830000000000
(1706000013.400000) vcan0 261#B903830000000000
(1706000013.500000) vcan0 261#AD03830000000000
(1706000013.600000) vcan0 261#8903830000000000
(1706000013.700000) vcan0 261#7B03830000000000
(1706000013.800000) vcan0 261#7703830000000000
(1706000013.900000) vcan0 261#6603830000000000
(1706000014.000000) vcan0 261#5803830000000000
(1706000014.100000) vcan0 261#3903830000000000
(1706000014.200000) vcan0 261#3A03830000000000
(1706000014.300000) vcan0 261#3703830000000000
(1706000014.400000) vcan0 261#2D03830000000000
(1706000014.500000) vcan0 261#3E03830000000000
(1706000014.600000) vcan0 261#3F03830000000000
(1706000014.700000) vcan0 261#3A03830000000000
(1706000014.800000) vcan0 261#2003830000000000
(1706000014.900000) vcan0 261#2003830000000000
(1706000015.000000) vcan0 261#2803830000000000
(1706000015.100000) vcan0 261#2003830000000000
(1706000015.200000) vcan0 261#2F03830000000000
(1706000015.300000) vcan0 261#2003830000000000
(1706000015.400000) vcan0 261#2303830000000000
(1706000015.500000) vcan0 261#3103830000000000
(1706000015.600000) vcan0 261#3B03830000000000
(1706000015.700000) vcan0 261#3503830000000000
(1706000015.800000) vcan0 261#4603830000000000
(1706000015.900000) vcan0 261#4703830000000000
(1706000016.000000) vcan0 261#4B03830000000000
(1706000016.100000) vcan0 261#6B03830000000000
(1706000016.200000) vcan0 261#6803830000000000
(1706000016.300000) vcan0 261#7003830000000000
(1706000016.400000) vcan0 261#8603830000000000
(1706000016.500000) vcan0 261#8E03830000000000
(1706000016.600000) vcan0 261#A803830000000000
(1706000016.700000) vcan0 261#C903830000000000
(1706000016.800000) vcan0 261#DD03830000000000
(1706000016.900000) vcan0 261#CC03830000000000
(1706000017.000000) vcan0 261#0104830000000000
(1706000017.100000) vcan0 261#0004830000000000
(1706000017.200000) vcan0 261#1E04830000000000
(1706000017.300000) vcan0 261#4204830000000000
(1706000017.400000) vcan0 261#5D04830000000000
(1706000017.500000) vcan0 261#6F04830000000000
(1706000017.600000) vcan0 261#6A04830000000000
(1706000017.700000) vcan0 261#8504840000000000
(1706000017.800000) vcan0 261#9A04830000000000
(1706000017.900000) vcan0 261#C404840000000000
(1706000018.000000) vcan0 261#E804840000000000
(1706000018.100000) vcan0 261#F004830000000000
(1706000018.200000) vcan0 261#3505840000000000
(1706000018.300000) vcan0 261#3D05840000000000
(1706000018.400000) vcan0 261#6805830000000000
(1706000018.500000) vcan0 261#8D05840000000000
(1706000018.600000) vcan0 261#9505840000000000
(1706000018.700000) vcan0 261#B005840000000000
(1706000018.800000) vcan0 261#E305840000000000
(1706000018.900000) vcan0 261#E905840000000000
(1706000019.000000) vcan0 261#1506840000000000
(1706000019.100000) vcan0 261#2606840000000000
(1706000019.200000) vcan0 261#4B06840000000000
(1706000019.300000) vcan0 261#7406840000000000
(1706000019.400000) vcan0 261#9706840000000000
(1706000019.500000) vcan0 261#D106840000000000
(1706000019.600000) vcan0 261#D706840000000000
(1706000019.700000) vcan0 261#0707840000000000
(1706000019.800000) vcan0 261#1E07840000000000
(1706000019.900000) vcan0 261#4A07840000000000
(1706000020.000000) vcan0 261#7F07840000000000
(1706000020.100000) vcan0 261#9607840000000000
(1706000020.200000) vcan0 261#B607840000000000
(1706000020.300000) vcan0 261#D607840000000000
(1706000020.400000) vcan0 261#E107840000000000
(1706000020.500000) vcan0 261#1E08840000000000
(1706000020.600000) vcan0 261#4108840000000000
(1706000020.700000) vcan0 261#5808840000000000
(1706000020.800000) vcan0 261#7D08840000000000
(1706000020.900000) vcan0 261#9608840000000000
(1706000021.000000) vcan0 261#BF08840000000000
(1706000021.100000) vcan0 261#E908840000000000
(1706000021.200000) vcan0 261#EE08840000000000
(1706000021.300000) vcan0 261#1E09840000000000
(1706000021.400000) vcan0 261#3309840000000000
(1706000021.500000) vcan0 261#5709840000000000
(1706000021.600000) vcan0 261#8809840000000000
(1706000021.700000) vcan0 261#B109840000000000
(1706000021.800000) vcan0 261#B409840000000000
(1706000021.900000) vcan0 261#CE09840000000000
(1706000022.000000) vcan0 261#E809840000000000
(1706000022.100000) vcan0 261#FC09840000000000
(1706000022.200000) vcan0 261#240A840000000000
(1706000022.300000) vcan0 261#380A840000000000
(1706000022.400000) vcan0 261#4E0A840000000000
(1706000022.500000) vcan0 261#790A840000000000
(1706000022.600000) vcan0 261#990A840000000000
(1706000022.700000) vcan0 261#A60A840000000000
(1706000022.800000) vcan0 261#B30A840000000000
(1706000022.900000) vcan0 261#E50A840000000000
(1706000023.000000) vcan0 261#FA0A840000000000
(1706000023.100000) vcan0 261#F30A840000000000
(1706000023.200000) vcan0 261#0D0B850000000000
(1706000023.300000) vcan0 261#260B850000000000
(1706000023.400000) vcan0 261#320B850000000000
(1706000023.500000) vcan0 261#3D0B850000000000
(1706000023.600000) vcan0 261#590B850000000000
(1706000023.700000) vcan0 261#580B850000000000
(1706000023.800000) vcan0 261#6E0B850000000000
(1706000023.900000) vcan0 261#790B850000000000
(1706000024.000000) vcan0 261#820B850000000000
(1706000024.100000) vcan0 261#830B850000000000
(1706000024.200000) vcan0 261#9D0B850000000000
(1706000024.300000) vcan0 261#B20B850000000000
(1706000024.400000) vcan0 261#B10B850000000000
(1706000024.500000) vcan0 261#B80B850000000000
(1706000024.600000) vcan0 261#A20B850000000000
(1706000024.700000) vcan0 261#B30B850000000000
(1706000024.800000) vcan0 261#A60B850000000000
(1706000024.900000) vcan0 261#B60B850000000000
(1706000025.000000) vcan0 261#B80B850000000000
(1706000025.100000) vcan0 261#B00B850000000000
(1706000025.200000) vcan0 261#A70B850000000000
(1706000025.300000) vcan0 261#B80B850000000000
(1706000025.400000) vcan0 261#A80B850000000000
(1706000025.500000) vcan0 261#AC0B850000000000
(1706000025.600000) vcan0 261#9C0B850000000000
(1706000025.700000) vcan0 261#980B850000000000
(1706000025.800000) vcan0 261#AB0B850000000000
(1706000025.900000) vcan0 261#990B850000000000
(1706000026.000000) vcan0 261#8A0B850000000000
(1706000026.100000) vcan0 261#760B850000000000
(1706000026.200000) vcan0 261#770B850000000000
(1706000026.300000) vcan0 261#610B850000000000
(1706000026.400000) vcan0 261#530B850000000000
(1706000026.500000) vcan0 261#460B850000000000
(1706000026.600000) vcan0 261#3F0B850000000000
(1706000026.700000) vcan0 261#270B850000000000
(1706000026.800000) vcan0 261#200B850000000000
(1706000026.900000) vcan0 261#E50A850000000000
(1706000027.000000) vcan0 261#D70A850000000000
(1706000027.100000) vcan0 261#CD0A850000000000
(1706000027.200000) vcan0 261#CE0A850000000000
(1706000027.300000) vcan0 261#AF0A850000000000
(1706000027.400000) vcan0 261#7E0A850000000000
(1706000027.500000) vcan0 261#6E0A850000000000
(1706000027.600000) vcan0 261#5E0A850000000000
(1706000027.700000) vcan0 261#350A860000000000
(1706000027.800000) vcan0 261#220A850000000000
(1706000027.900000) vcan0 261#1A0A850000000000
(1706000028.000000) vcan0 261#F909850000000000
(1706000028.100000) vcan0 261#DB09850000000000
(1706000028.200000) vcan0 261#AE09850000000000
(1706000028.300000) vcan0 261#9009860000000000
(1706000028.400000) vcan0 261#7509850000000000
(1706000028.500000) vcan0 261#5309860000000000
(1706000028.600000) vcan0 261#3809860000000000
(1706000028.700000) vcan0 261#3409860000000000
(1706000028.800000) vcan0 261#F708850000000000
(1706000028.900000) vcan0 261#E808860000000000
(1706000029.000000) vcan0 261#D508860000000000
(1706000029.100000) vcan0 261#B308860000000000
(1706000029.200000) vcan0 261#7408860000000000
(1706000029.300000) vcan0 261#6508860000000000
(1706000029.400000) vcan0 261#3808860000000000
(1706000029.500000) vcan0 261#1708860000000000
(1706000029.600000) vcan0 261#F807860000000000
(1706000029.700000) vcan0 261#DC07860000000000
(1706000029.800000) vcan0 261#B607860000000000
(1706000029.900000) vcan0 261#8307860000000000
(1706000030.000000) vcan0 261#6D07860000000000
(1706000030.100000) vcan0 261#3607860000000000
(1706000030.200000) vcan0 261#3007860000000000
(1706000030.300000) vcan0 261#1007860000000000
(1706000030.400000) vcan0 261#E406860000000000
(1706000030.500000) vcan0 261#BC06860000000000
(1706000030.600000) vcan0 261#AF06860000000000
(1706000030.700000) vcan0 261#6F06860000000000
(1706000030.800000) vcan0 261#5306860000000000
(1706000030.900000) vcan0 261#4B06860000000000
(1706000031.000000) vcan0 261#1B06860000000000
(1706000031.100000) vcan0 261#0106860000000000
(1706000031.200000) vcan0 261#E905860000000000
(1706000031.300000) vcan0 261#C805860000000000
(1706000031.400000) vcan0 261#AA05860000000000
(1706000031.500000) vcan0 261#7405860000000000
(1706000031.600000) vcan0 261#6D05860000000000
(1706000031.700000) vcan0 261#4F05860000000000
(1706000031.800000) vcan0 261#0905860000000000
(1706000031.900000) vcan0 261#F004860000000000
(1706000032.000000) vcan0 261#DC04860000000000
(1706000032.100000) vcan0 261#CC04860000000000
(1706000032.200000) vcan0 261#C204860000000000
(1706000032.300000) vcan0 261#9304860000000000
(1706000032.400000) vcan0 261#6A04860000000000
(1706000032.500000) vcan0 261#6004860000000000
(1706000032.600000) vcan0 261#3C04860000000000
(1706000032.700000) vcan0 261#4004860000000000
(1706000032.800000) vcan0 261#2804860000000000
(1706000032.900000) vcan0 261#1604870000000000
(1706000033.000000) vcan0 261#0004860000000000
(1706000033.100000) vcan0 261#CC03860000000000
(1706000033.200000) vcan0 261#BD03860000000000
(1706000033.300000) vcan0 261#B103860000000000
(1706000033.400000) vcan0 261#9E03860000000000
(1706000033.500000) vcan0 261#A303870000000000
(1706000033.600000) vcan0 261#8003870000000000
(1706000033.700000) vcan0 261#6503870000000000
(1706000033.800000) vcan0 261#7603860000000000
(1706000033.900000) vcan0 261#5003870000000000
(1706000034.000000) vcan0 261#5203870000000000
(1706000034.100000) vcan0 261#5D03870000000000
(1706000034.200000) vcan0 261#3A03870000000000
(1706000034.300000) vcan0 261#4D03870000000000
(1706000034.400000) vcan0 261#3903870000000000
(1706000034.500000) vcan0 261#2003870000000000
(1706000034.600000) vcan0 261#3403870000000000
(1706000034.700000) vcan0 261#2103870000000000
(1706000034.800000) vcan0 261#2103870000000000
(1706000034.900000) vcan0 261#2803870000000000
(1706000035.000000) vcan0 261#2003870000000000
(1706000035.100000) vcan0 261#3103870000000000
(1706000035.200000) vcan0 261#2003870000000000
(1706000035.300000) vcan0 261#2003870000000000
(1706000035.400000) vcan0 261#2003870000000000
(1706000035.500000) vcan0 261#2E03870000000000
(1706000035.600000) vcan0 261#2403870000000000
(1706000035.700000) vcan0 261#3B03870000000000
(1706000035.800000) vcan0 261#3603870000000000
(1706000035.900000) vcan0 261#3A03870000000000
(1706000036.000000) vcan0 261#6303870000000000
(1706000036.100000) vcan0 261#6203870000000000
(1706000036.200000) vcan0 261#5A03870000000000
(1706000036.300000) vcan0 261#8803870000000000
(1706000036.400000) vcan0 261#8403870000000000
(1706000036.500000) vcan0 261#A303870000000000
(1706000036.600000) vcan0 261#9403870000000000
(1706000036.700000) vcan0 261#A603870000000000
(1706000036.800000) vcan0 261#DE03870000000000
(1706000036.900000) vcan0 261#F103870000000000
(1706000037.000000) vcan0 261#EE03870000000000
(1706000037.100000) vcan0 261#1304870000000000
(1706000037.200000) vcan0 261#2304870000000000
(1706000037.300000) vcan0 261#4904870000000000
(1706000037.400000) vcan0 261#5A04870000000000
(1706000037.500000) vcan0 261#5D04870000000000
(1706000037.600000) vcan0 261#8204870000000000
(1706000037.700000) vcan0 261#9B04870000000000
(1706000037.800000) vcan0 261#A104870000000000
(1706000037.900000) vcan0 261#CB04870000000000
(1706000038.000000) vcan0 261#D904870000000000
(1706000038.100000) vcan0 261#ED04870000000000
(1706000038.200000) vcan0 261#2605870000000000
(1706000038.300000) vcan0 261#3D05870000000000
(1706000038.400000) vcan0 261#4F05870000000000
(1706000038.500000) vcan0 261#6F05870000000000
(1706000038.600000) vcan0 261#A205870000000000
(1706000038.700000) vcan0 261#C505870000000000
(1706000038.800000) vcan0 261#E305870000000000
(1706000038.900000) vcan0 261#E205870000000000
(1706000039.000000) vcan0 261#0706870000000000
(1706000039.100000) vcan0 261#3D06870000000000
(1706000039.200000) vcan0 261#4706870000000000
(1706000039.300000) vcan0 261#7806870000000000
(1706000039.400000) vcan0 261#9106870000000000
(1706000039.500000) vcan0 261#AC06870000000000
(1706000039.600000) vcan0 261#D906870000000000
(1706000039.700000) vcan0 261#0F07870000000000
(1706000039.800000) vcan0 261#2B07870000000000
(1706000039.900000) vcan0 261#4207870000000000
(1706000040.000000) vcan0 261#5C07870000000000
(1706000040.100000) vcan0 261#8207870000000000
(1706000040.200000) vcan0 261#9E07870000000000
(1706000040.300000) vcan0 261#E407870000000000
(1706000040.400000) vcan0 261#FB07870000000000
(1706000040.500000) vcan0 261#1808870000000000
(1706000040.600000) vcan0 261#4E08870000000000
(1706000040.700000) vcan0 261#6908870000000000
(1706000040.800000) vcan0 261#7A08870000000000
(1706000040.900000) vcan0 261#9908870000000000
(1706000041.000000) vcan0 261#BF08870000000000
(1706000041.100000) vcan0 261#D808870000000000
(1706000041.200000) vcan0 261#0E09870000000000
(1706000041.300000) vcan0 261#2409870000000000
(1706000041.400000) vcan0 261#4309870000000000
(1706000041.500000) vcan0 261#5409870000000000
(1706000041.600000) vcan0 261#8409870000000000
(1706000041.700000) vcan0 261#AB09870000000000
(1706000041.800000) vcan0 261#C309870000000000
(1706000041.900000) vcan0 261#CC09870000000000
(1706000042.000000) vcan0 261#F709870000000000
(1706000042.100000) vcan0 261#000A870000000000
(1706000042.200000) vcan0 261#330A870000000000
(1706000042.300000) vcan0 261#430A870000000000
(1706000042.400000) vcan0 261#560A870000000000
(1706000042.500000) vcan0 261#600A870000000000
(1706000042.600000) vcan0 261#A20A870000000000
(1706000042.700000) vcan0 261#BB0A870000000000
(1706000042.800000) vcan0 261#B00A870000000000
(1706000042.900000) vcan0 261#C40A870000000000
(1706000043.000000) vcan0 261#E80A870000000000
(1706000043.100000) vcan0 261#F50A870000000000
(1706000043.200000) vcan0 261#070B870000000000
(1706000043.300000) vcan0 261#1F0B870000000000
(1706000043.400000) vcan0 261#1E0B870000000000
(1706000043.500000) vcan0 261#3F0B870000000000
(1706000043.600000) vcan0 261#620B870000000000
(1706000043.700000) vcan0 261#5A0B870000000000
(1706000043.800000) vcan0 261#5E0B870000000000
(1706000043.900000) vcan0 261#6C0B870000000000
(1706000044.000000) vcan0 261#860B870000000000
(1706000044.100000) vcan0 261#7D0B870000000000
(1706000044.200000) vcan0 261#900B870000000000
(1706000044.300000) vcan0 261#9D0B870000000000
(1706000044.400000) vcan0 261#AD0B870000000000
(1706000044.500000) vcan0 261#B80B870000000000
(1706000044.600000) vcan0 261#B60B870000000000
(1706000044.700000) vcan0 261#A50B870000000000
(1706000044.800000) vcan0 261#A70B870000000000
(1706000044.900000) vcan0 261#B70B870000000000
(1706000045.000000) vcan0 261#B80B870000000000
(1706000045.100000) vcan0 261#A40B870000000000
(1706000045.200000) vcan0 261#B80B870000000000
(1706000045.300000) vcan0 261#B80B870000000000
(1706000045.400000) vcan0 261#AB0B870000000000
(1706000045.500000) vcan0 261#9F0B870000000000
(1706000045.600000) vcan0 261#8F0B870000000000
(1706000045.700000) vcan0 261#980B870000000000
(1706000045.800000) vcan0 261#9D0B870000000000
(1706000045.900000) vcan0 261#8C0B870000000000
(1706000046.000000) vcan0 261#6C0B870000000000
(1706000046.100000) vcan0 261#610B870000000000
(1706000046.200000) vcan0 261#610B870000000000
(1706000046.300000) vcan0 261#480B870000000000
(1706000046.400000) vcan0 261#570B870000000000
(1706000046.500000) vcan0 261#520B870000000000
(1706000046.600000) vcan0 261#1E0B870000000000
(1706000046.700000) vcan0 261#110B870000000000
(1706000046.800000) vcan0 261#1B0B870000000000
(1706000046.900000) vcan0 261#F50A870000000000
(1706000047.000000) vcan0 261#E20A870000000000
(1706000047.100000) vcan0 261#E70A870000000000
(1706000047.200000) vcan0 261#C40A870000000000
(1706000047.300000) vcan0 261#AC0A870000000000
(1706000047.400000) vcan0 261#990A870000000000
(1706000047.500000) vcan0 261#710A870000000000
(1706000047.600000) vcan0 261#490A870000000000
(1706000047.700000) vcan0 261#350A870000000000
(1706000047.800000) vcan0 261#260A870000000000
(1706000047.900000) vcan0 261#110A870000000000
(1706000048.000000) vcan0 261#E109870000000000
(1706000048.100000) vcan0 261#C209870000000000
(1706000048.200000) vcan0 261#CA09870000000000
(1706000048.300000) vcan0 261#9B09870000000000
(1706000048.400000) vcan0 261#6B09870000000000
(1706000048.500000) vcan0 261#7109870000000000
(1706000048.600000) vcan0 261#2C09870000000000
(1706000048.700000) vcan0 261#1909870000000000
(1706000048.800000) vcan0 261#0509870000000000
(1706000048.900000) vcan0 261#EA08870000000000
(1706000049.000000) vcan0 261#AD08870000000000
(1706000049.100000) vcan0 261#9308870000000000
(1706000049.200000) vcan0 261#7908870000000000
(1706000049.300000) vcan0 261#5508870000000000
(1706000049.400000) vcan0 261#2A08870000000000
(1706000049.500000) vcan0 261#2208870000000000
(1706000049.600000) vcan0 261#0B08870000000000
(1706000049.700000) vcan0 261#D107870000000000
(1706000049.800000) vcan0 261#AA07870000000000
(1706000049.900000) vcan0 261#A307870000000000
(1706000050.000000) vcan0 261#7807870000000000
(1706000050.100000) vcan0 261#3F07870000000000
(1706000050.200000) vcan0 261#2707870000000000
(1706000050.300000) vcan0 261#1807870000000000
(1706000050.400000) vcan0 261#EA06870000000000
(1706000050.500000) vcan0 261#AE06870000000000
(1706000050.600000) vcan0 261#AB06870000000000
(1706000050.700000) vcan0 261#6A06870000000000
(1706000050.800000) vcan0 261#6406870000000000
(1706000050.900000) vcan0 261#4406870000000000
(1706000051.000000) vcan0 261#0706870000000000
(1706000051.100000) vcan0 261#EF05870000000000
(1706000051.200000) vcan0 261#CD05870000000000
(1706000051.300000) vcan0 261#A905870000000000
(1706000051.400000) vcan0 261#9A05870000000000
(1706000051.500000) vcan0 261#6405870000000000
(1706000051.600000) vcan0 261#4805870000000000
(1706000051.700000) vcan0 261#3405870000000000
(1706000051.800000) vcan0 261#1505870000000000
(1706000051.900000) vcan0 261#EF04870000000000
(1706000052.000000) vcan0 261#F704870000000000
(1706000052.100000) vcan0 261#CD04870000000000
(1706000052.200000) vcan0 261#AA04870000000000
(1706000052.300000) vcan0 261#8C04870000000000
(1706000052.400000) vcan0 261#6804870000000000
(1706000052.500000) vcan0 261#5F04870000000000
(1706000052.600000) vcan0 261#3804870000000000
(1706000052.700000) vcan0 261#2804870000000000
(1706000052.800000) vcan0 261#2104870000000000
(1706000052.900000) vcan0 261#F603870000000000
(1706000053.000000) vcan0 261#0604870000000000
(1706000053.100000) vcan0 261#E303870000000000
(1706000053.200000) vcan0 261#C403870000000000
(1706000053.300000) vcan0 261#C703870000000000
(1706000053.400000) vcan0 261#BD03870000000000
(1706000053.500000) vcan0 261#9003870000000000
(1706000053.600000) vcan0 261#7C03870000000000
(1706000053.700000) vcan0 261#8F03870000000000
(1706000053.800000) vcan0 261#6403870000000000
(1706000053.900000) vcan0 261#6103870000000000
(1706000054.000000) vcan0 261#4B03870000000000
(1706000054.100000) vcan0 261#5A03870000000000
(1706000054.200000) vcan0 261#3203870000000000
(1706000054.300000) vcan0 261#3F03870000000000
(1706000054.400000) vcan0 261#3B03870000000000
(1706000054.500000) vcan0 261#4103870000000000
(1706000054.600000) vcan0 261#3203870000000000
(1706000054.700000) vcan0 261#2003870000000000
(1706000054.800000) vcan0 261#3003870000000000
(1706000054.900000) vcan0 261#2003870000000000
(1706000055.000000) vcan0 261#2603870000000000
(1706000055.100000) vcan0 261#2803870000000000
(1706000055.200000) vcan0 261#2F03870000000000
(1706000055.300000) vcan0 261#3A03870000000000
(1706000055.400000) vcan0 261#2403870000000000
(1706000055.500000) vcan0 261#4003870000000000
(1706000055.600000) vcan0 261#3503870000000000
(1706000055.700000) vcan0 261#3403870000000000
(1706000055.800000) vcan0 261#4403870000000000
(1706000055.900000) vcan0 261#3903870000000000
(1706000056.000000) vcan0 261#5D03870000000000
(1706000056.100000) vcan0 261#6703870000000000
(1706000056.200000) vcan0 261#8303870000000000
(1706000056.300000) vcan0 261#7603870000000000
(1706000056.400000) vcan0 261#9D03870000000000
(1706000056.500000) vcan0 261#8203870000000000
(1706000056.600000) vcan0 261#A903870000000000
(1706000056.700000) vcan0 261#BD03870000000000
(1706000056.800000) vcan0 261#C903870000000000
(1706000056.900000) vcan0 261#EA03870000000000
(1706000057.000000) vcan0 261#F203870000000000
(1706000057.100000) vcan0 261#F203870000000000
(1706000057.200000) vcan0 261#1904870000000000
(1706000057.300000) vcan0 261#2204870000000000
(1706000057.400000) vcan0 261#3A04870000000000
(1706000057.500000) vcan0 261#6004870000000000
(1706000057.600000) vcan0 261#7A04870000000000
(1706000057.700000) vcan0 261#9204870000000000
(1706000057.800000) vcan0 261#A704870000000000
(1706000057.900000) vcan0 261#D704870000000000
(1706000058.000000) vcan0 261#F504870000000000
(1706000058.100000) vcan0 261#0A05870000000000
(1706000058.200000) vcan0 261#3405870000000000
(1706000058.300000) vcan0 261#2E05870000000000
(1706000058.400000) vcan0 261#5D05870000000000
(1706000058.500000) vcan0 261#6D05870000000000
(1706000058.600000) vcan0 261#8A05870000000000
(1706000058.700000) vcan0 261#B405870000000000
(1706000058.800000) vcan0 261#DC05870000000000
(1706000058.900000) vcan0 261#FB05870000000000
(1706000059.000000) vcan0 261#2106870000000000
(1706000059.100000) vcan0 261#4406870000000000
(1706000059.200000) vcan0 261#4706870000000000
(1706000059.300000) vcan0 261#8C06870000000000
(1706000059.400000) vcan0 261#9606870000000000
(1706000059.500000) vcan0 261#B506870000000000
(1706000059.600000) vcan0 261#E306870000000000
(1706000059.700000) vcan0 261#0907870000000000
(1706000059.800000) vcan0 261#2B07870000000000
(1706000059.900000) vcan0 261#5907870000000000
(1706000000.000000) vcan0 352#9D13649600000000
(1706000001.000000) vcan0 352#6114649603000000
(1706000002.000000) vcan0 352#0D1564960B000000
(1706000003.000000) vcan0 352#FA15649614000000
(1706000004.000000) vcan0 352#9316649619000000
(1706000005.000000) vcan0 352#6517649625000000
(1706000006.000000) vcan0 352#1E1864962A000000
(1706000007.000000) vcan0 352#7418649631000000
(1706000008.000000) vcan0 352#E918649634000000
(1706000009.000000) vcan0 352#5419649644000000
(1706000010.000000) vcan0 352#B919649649000000
(1706000011.000000) vcan0 352#E81964964E000000
(1706000012.000000) vcan0 352#EC19649658000000
(1706000013.000000) vcan0 352#FA1964965C000000
(1706000014.000000) vcan0 352#D719649666000000
(1706000015.000000) vcan0 352#CB19649666000000
(1706000016.000000) vcan0 352#5219649675000000
(1706000017.000000) vcan0 352#FE18649674000000
(1706000018.000000) vcan0 352#9B18649684000000
(1706000019.000000) vcan0 352#E217649689000000
(1706000020.000000) vcan0 352#4E1764968D000000
(1706000021.000000) vcan0 352#A116649694000000
(1706000022.000000) vcan0 352#0E16649699000000
(1706000023.000000) vcan0 352#3B156496A1000000
(1706000024.000000) vcan0 352#67146496A7000000
(1706000025.000000) vcan0 352#70136496AE000000
(1706000026.000000) vcan0 352#9A126496B6000000
(1706000027.000000) vcan0 352#EC116496C1000000
(1706000028.000000) vcan0 352#14116496CA000000
(1706000029.000000) vcan0 352#85106496C9000000
(1706000030.000000) vcan0 352#D30F6496D9000000
(1706000031.000000) vcan0 352#340F6496D8000000
(1706000032.000000) vcan0 352#9C0E6496E5000000
(1706000033.000000) vcan0 352#1F0E6496EC000000
(1706000034.000000) vcan0 352#A30D6496EE000000
(1706000035.000000) vcan0 352#510D6496F9000000
(1706000036.000000) vcan0 352#3C0D6496FF000000
(1706000037.000000) vcan0 352#050D6496FE000000
(1706000038.000000) vcan0 352#270D6496FA000000
(1706000039.000000) vcan0 352#350D6496FF000000
(1706000040.000000) vcan0 352#540D6496FE000000
(1706000041.000000) vcan0 352#870D6496FC000000
(1706000042.000000) vcan0 352#040E6496FD000000
(1706000043.000000) vcan0 352#9A0E6496FF000000
(1706000044.000000) vcan0 352#170F6496FD000000
(1706000045.000000) vcan0 352#C10F6496FB000000
(1706000046.000000) vcan0 352#78106496FB000000
(1706000047.000000) vcan0 352#3A116496FA000000
(1706000048.000000) vcan0 352#08126496FF000000
(1706000049.000000) vcan0 352#9F126496FC000000
(1706000050.000000) vcan0 352#A5136496FF000000
(1706000051.000000) vcan0 352#48146496FF000000
(1706000052.000000) vcan0 352#10156496FD000000
(1706000053.000000) vcan0 352#FB156496FF000000
(1706000054.000000) vcan0 352#B9166496FF000000
(1706000055.000000) vcan0 352#43176496FF000000
(1706000056.000000) vcan0 352#DC176496FF000000
(1706000057.000000) vcan0 352#AD186496FB000000
(1706000058.000000) vcan0 352#EB186496FF000000
(1706000059.000000) vcan0 352#52196496FF000000
(1706000060.000000) vcan0 352#A1196496FF000000
(1706000000.000000) vcan0 243#00050000
(1706000001.000000) vcan0 243#03070000
(1706000002.000000) vcan0 243#09100000
(1706000003.000000) vcan0 243#15180000
(1706000004.000000) vcan0 243#1E190000
(1706000005.000000) vcan0 243#23250000
(1706000006.000000) vcan0 243#2E260000
(1706000007.000000) vcan0 243#2E340000
(1706000008.000000) vcan0 243#3A370000
(1706000009.000000) vcan0 243#443E0000
(1706000010.000000) vcan0 243#43450000
(1706000011.000000) vcan0 243#4A4E0000
(1706000012.000000) vcan0 243#56560000
(1706000013.000000) vcan0 243#5F5E0000
(1706000014.000000) vcan0 243#67650000
(1706000015.000000) vcan0 243#686A0000
(1706000016.000000) vcan0 243#71740000
(1706000017.000000) vcan0 243#76740000
(1706000018.000000) vcan0 243#84840000
(1706000019.000000) vcan0 243#87830000
(1706000020.000000) vcan0 243#8E8F0000
(1706000021.000000) vcan0 243#959A0000
(1706000022.000000) vcan0 243#A1A00000
(1706000023.000000) vcan0 243#9FA70000
(1706000024.000000) vcan0 243#ABA90000
(1706000025.000000) vcan0 243#B3B40000
(1706000026.000000) vcan0 243#BDBB0000
(1706000027.000000) vcan0 243#BABB0000
(1706000028.000000) vcan0 243#C4C20000
(1706000029.000000) vcan0 243#C9D00000
(1706000030.000000) vcan0 243#D5D60000
(1706000031.000000) vcan0 243#DCDB0000
(1706000032.000000) vcan0 243#E5DE0000
(1706000033.000000) vcan0 243#EAEB0000
(1706000034.000000) vcan0 243#EFEF0000
(1706000035.000000) vcan0 243#F8F50000
(1706000036.000000) vcan0 243#FFFF0000
(1706000037.000000) vcan0 243#FEFF0000
(1706000038.000000) vcan0 243#FFFF0000
(1706000039.000000) vcan0 243#FBFF0000
(1706000040.000000) vcan0 243#FFFF0000
(1706000041.000000) vcan0 243#FAFB0000
(1706000042.000000) vcan0 243#FEFF0000
(1706000043.000000) vcan0 243#FFFD0000
(1706000044.000000) vcan0 243#FFFF0000
(1706000045.000000) vcan0 243#FBFF0000
(1706000046.000000) vcan0 243#FFFC0000
(1706000047.000000) vcan0 243#FFFF0000
(1706000048.000000) vcan0 243#FFFF0000
(1706000049.000000) vcan0 243#FCFB0000
(1706000050.000000) vcan0 243#FFFD0000
(1706000051.000000) vcan0 243#FFFF0000
(1706000052.000000) vcan0 243#FAFF0000
(1706000053.000000) vcan0 243#FDFB0000
(1706000054.000000) vcan0 243#FFFF0000
(1706000055.000000) vcan0 243#FBFF0000
(1706000056.000000) vcan0 243#FEFF0000
(1706000057.000000) vcan0 243#FFFE0000
(1706000058.000000) vcan0 243#FDFB0000
(1706000059.000000) vcan0 243#FFFF0000
(1706000060.000000) vcan0 243#FCFF0000
