(1706000000.000000) vcan0 100#913B800000000000
(1706000000.010000) vcan0 100#2C3B800000000000
(1706000000.020000) vcan0 100#EB3B800000000000
(1706000000.030000) vcan0 100#3D3C800000000000
(1706000000.040000) vcan0 100#B33B800000000000
(1706000000.050000) vcan0 100#873B800000000000
(1706000000.060000) vcan0 100#5F3B800000000000
(1706000000.070000) vcan0 100#563C800000000000
(1706000000.080000) vcan0 100#DB3B800000000000
(1706000000.090000) vcan0 100#C63C800000000000
(1706000000.100000) vcan0 100#E03C800000000000
(1706000000.110000) vcan0 100#583C800000000000
(1706000000.120000) vcan0 100#4D3D800000000000
(1706000000.130000) vcan0 100#383C800000000000
(1706000000.140000) vcan0 100#5D3D800000000000
(1706000000.150000) vcan0 100#6B3D800000000000
(1706000000.160000) vcan0 100#273D800000000000
(1706000000.170000) vcan0 100#0B3D800000000000
(1706000000.180000) vcan0 100#C53D800000000000
(1706000000.190000) vcan0 100#EC3D800000000000
(1706000000.200000) vcan0 100#D13D800000000000
(1706000000.210000) vcan0 100#443D800000000000
(1706000000.220000) vcan0 100#2C3D800000000000
(1706000000.230000) vcan0 100#4F3D800000000000
(1706000000.240000) vcan0 100#273E800000000000
(1706000000.250000) vcan0 100#E53D800000000000
(1706000000.260000) vcan0 100#DC3D800000000000
(1706000000.270000) vcan0 100#7E3E800000000000
(1706000000.280000) vcan0 100#F13D800000000000
(1706000000.290000) vcan0 100#0A3E800000000000
(1706000000.300000) vcan0 100#483F800000000000
(1706000000.310000) vcan0 100#CC3E800000000000
(1706000000.320000) vcan0 100#4C3F800000000000
(1706000000.330000) vcan0 100#8F3E800000000000
(1706000000.340000) vcan0 100#C93E800000000000
(1706000000.350000) vcan0 100#C03E800000000000
(1706000000.360000) vcan0 100#C63F800000000000
(1706000000.370000) vcan0 100#933F800000000000
(1706000000.380000) vcan0 100#0A40800000000000
(1706000000.390000) vcan0 100#413F800000000000
(1706000000.400000) vcan0 100#C53F800000000000
(1706000000.410000) vcan0 100#E83F800000000000
(1706000000.420000) vcan0 100#C23F800000000000
(1706000000.430000) vcan0 100#B040800000000000
(1706000000.440000) vcan0 100#8D3F800000000000
(1706000000.450000) vcan0 100#AF3F800000000000
(1706000000.460000) vcan0 100#BA40800000000000
(1706000000.470000) vcan0 100#D53F800000000000
(1706000000.480000) vcan0 100#3941800000000000
(1706000000.490000) vcan0 100#4B41800000000000
(1706000000.500000) vcan0 100#1540800000000000
(1706000000.510000) vcan0 100#1C41800000000000
(1706000000.520000) vcan0 100#A540800000000000
(1706000000.530000) vcan0 100#8A40800000000000
(1706000000.540000) vcan0 100#1D41800000000000
(1706000000.550000) vcan0 100#CD41800000000000
(1706000000.560000) vcan0 100#6441800000000000
(1706000000.570000) vcan0 100#1142800000000000
(1706000000.580000) vcan0 100#5441800000000000
(1706000000.590000) vcan0 100#DC41800000000000
(1706000000.600000) vcan0 100#2D42800000000000
(1706000000.610000) vcan0 100#4E42800000000000
(1706000000.620000) vcan0 100#5741800000000000
(1706000000.630000) vcan0 100#7941800000000000
(1706000000.640000) vcan0 100#C342800000000000
(1706000000.650000) vcan0 100#1542800000000000
(1706000000.660000) vcan0 100#F942800000000000
(1706000000.670000) vcan0 100#FD41800000000000
(1706000000.680000) vcan0 100#1242800000000000
(1706000000.690000) vcan0 100#2243800000000000
(1706000000.700000) vcan0 100#D742800000000000
(1706000000.710000) vcan0 100#A842800000000000
(1706000000.720000) vcan0 100#FB42800000000000
(1706000000.730000) vcan0 100#3E43800000000000
(1706000000.740000) vcan0 100#E242800000000000
(1706000000.750000) vcan0 100#1544800000000000
(1706000000.760000) vcan0 100#6B43800000000000
(1706000000.770000) vcan0 100#1743800000000000
(1706000000.780000) vcan0 100#7E43800000000000
(1706000000.790000) vcan0 100#7343800000000000
(1706000000.800000) vcan0 100#5543800000000000
(1706000000.810000) vcan0 100#A843800000000000
(1706000000.820000) vcan0 100#A144800000000000
(1706000000.830000) vcan0 100#E043800000000000
(1706000000.840000) vcan0 100#F343800000000000
(1706000000.850000) vcan0 100#0B45800000000000
(1706000000.860000) vcan0 100#8344800000000000
(1706000000.870000) vcan0 100#1445800000000000
(1706000000.880000) vcan0 100#3444800000000000
(1706000000.890000) vcan0 100#C244800000000000
(1706000000.900000) vcan0 100#4845800000000000
(1706000000.910000) vcan0 100#BC45800000000000
(1706000000.920000) vcan0 100#0A45800000000000
(1706000000.930000) vcan0 100#C645800000000000
(1706000000.940000) vcan0 100#F444800000000000
(1706000000.950000) vcan0 100#6045800000000000
(1706000000.960000) vcan0 100#3E45800000000000
(1706000000.970000) vcan0 100#9C45800000000000
(1706000000.980000) vcan0 100#DC45800000000000
(1706000000.990000) vcan0 100#9546800000000000
(1706000001.000000) vcan0 100#A446800000000000
(1706000001.010000) vcan0 100#9446800000000000
(1706000001.020000) vcan0 100#2F46800000000000
(1706000001.030000) vcan0 100#2B46800000000000
(1706000001.040000) vcan0 100#3E46800000000000
(1706000001.050000) vcan0 100#3046800000000000
(1706000001.060000) vcan0 100#8D46800000000000
(1706000001.070000) vcan0 100#5847800000000000
(1706000001.080000) vcan0 100#E446800000000000
(1706000001.090000) vcan0 100#7146800000000000
(1706000001.100000) vcan0 100#AA47800000000000
(1706000001.110000) vcan0 100#2E47800000000000
(1706000001.120000) vcan0 100#9D46800000000000
(1706000001.130000) vcan0 100#5447800000000000
(1706000001.140000) vcan0 100#F446800000000000
(1706000001.150000) vcan0 100#F346800000000000
(1706000001.160000) vcan0 100#C247800000000000
(1706000001.170000) vcan0 100#5D47800000000000
(1706000001.180000) vcan0 100#5D48800000000000
(1706000001.190000) vcan0 100#0F48800000000000
(1706000001.200000) vcan0 100#EB47800000000000
(1706000001.210000) vcan0 100#2948800000000000
(1706000001.220000) vcan0 100#D347800000000000
(1706000001.230000) vcan0 100#F847800000000000
(1706000001.240000) vcan0 100#AA48800000000000
(1706000001.250000) vcan0 100#4748800000000000
(1706000001.260000) vcan0 100#0B48800000000000
(1706000001.270000) vcan0 100#6A49800000000000
(1706000001.280000) vcan0 100#3E48800000000000
(1706000001.290000) vcan0 100#9B48800000000000
(1706000001.300000) vcan0 100#8D49800000000000
(1706000001.310000) vcan0 100#F248800000000000
(1706000001.320000) vcan0 100#AF49800000000000
(1706000001.330000) vcan0 100#7A49800000000000
(1706000001.340000) vcan0 100#A249800000000000
(1706000001.350000) vcan0 100#F549800000000000
(1706000001.360000) vcan0 100#D849800000000000
(1706000001.370000) vcan0 100#3749800000000000
(1706000001.380000) vcan0 100#4649800000000000
(1706000001.390000) vcan0 100#9A49800000000000
(1706000001.400000) vcan0 100#4F4A800000000000
(1706000001.410000) vcan0 100#4B4A800000000000
(1706000001.420000) vcan0 100#314A800000000000
(1706000001.430000) vcan0 100#C84A800000000000
(1706000001.440000) vcan0 100#4C4A800000000000
(1706000001.450000) vcan0 100#D149800000000000
(1706000001.460000) vcan0 100#C94A800000000000
(1706000001.470000) vcan0 100#064B800000000000
(1706000001.480000) vcan0 100#B04A800000000000
(1706000001.490000) vcan0 100#4D4A800000000000
(1706000001.500000) vcan0 100#894B800000000000
(1706000001.510000) vcan0 100#8A4B800000000000
(1706000001.520000) vcan0 100#B04A800000000000
(1706000001.530000) vcan0 100#014B800000000000
(1706000001.540000) vcan0 100#C64B800000000000
(1706000001.550000) vcan0 100#024C800000000000
(1706000001.560000) vcan0 100#364B800000000000
(1706000001.570000) vcan0 100#094C800000000000
(1706000001.580000) vcan0 100#9E4B800000000000
(1706000001.590000) vcan0 100#5E4B800000000000
(1706000001.600000) vcan0 100#704C800000000000
(1706000001.610000) vcan0 100#754C800000000000
(1706000001.620000) vcan0 100#794B800000000000
(1706000001.630000) vcan0 100#FD4B800000000000
(1706000001.640000) vcan0 100#BA4C800000000000
(1706000001.650000) vcan0 100#D54C800000000000
(1706000001.660000) vcan0 100#E54C800000000000
(1706000001.670000) vcan0 100#1B4D800000000000
(1706000001.680000) vcan0 100#4E4C800000000000
(1706000001.690000) vcan0 100#BA4C800000000000
(1706000001.700000) vcan0 100#484D800000000000
(1706000001.710000) vcan0 100#504C800000000000
(1706000001.720000) vcan0 100#D34C800000000000
(1706000001.730000) vcan0 100#CB4D800000000000
(1706000001.740000) vcan0 100#704D800000000000
(1706000001.750000) vcan0 100#FF4D800000000000
(1706000001.760000) vcan0 100#084E800000000000
(1706000001.770000) vcan0 100#2B4E800000000000
(1706000001.780000) vcan0 100#3F4E800000000000
(1706000001.790000) vcan0 100#2A4D800000000000
(1706000001.800000) vcan0 100#1C4E800000000000
(1706000001.810000) vcan0 100#084E800000000000
(1706000001.820000) vcan0 100#D14D800000000000
(1706000001.830000) vcan0 100#BB4D800000000000
(1706000001.840000) vcan0 100#794D800000000000
(1706000001.850000) vcan0 100#4D4E800000000000
(1706000001.860000) vcan0 100#AC4E800000000000
(1706000001.870000) vcan0 100#3E4E800000000000
(1706000001.880000) vcan0 100#BE4E800000000000
(1706000001.890000) vcan0 100#5A4E800000000000
(1706000001.900000) vcan0 100#004F800000000000
(1706000001.910000) vcan0 100#864E800000000000
(1706000001.920000) vcan0 100#BE4E800000000000
(1706000001.930000) vcan0 100#744E800000000000
(1706000001.940000) vcan0 100#A84F800000000000
(1706000001.950000) vcan0 100#B24F800000000000
(1706000001.960000) vcan0 100#F54E800000000000
(1706000001.970000) vcan0 100#A14E800000000000
(1706000001.980000) vcan0 100#4F4F800000000000
(1706000001.990000) vcan0 100#B54F800000000000
(1706000002.000000) vcan0 100#804F800000000000
(1706000002.010000) vcan0 100#A14F810000000000
(1706000002.020000) vcan0 100#2950800000000000
(1706000002.030000) vcan0 100#454F800000000000
(1706000002.040000) vcan0 100#1C50800000000000
(1706000002.050000) vcan0 100#7450800000000000
(1706000002.060000) vcan0 100#5750800000000000
(1706000002.070000) vcan0 100#C64F800000000000
(1706000002.080000) vcan0 100#EC4F800000000000
(1706000002.090000) vcan0 100#D750800000000000
(1706000002.100000) vcan0 100#5350800000000000
(1706000002.110000) vcan0 100#1C50800000000000
(1706000002.120000) vcan0 100#9B50800000000000
(1706000002.130000) vcan0 100#EA50800000000000
(1706000002.140000) vcan0 100#2151800000000000
(1706000002.150000) vcan0 100#5450800000000000
(1706000002.160000) vcan0 100#8250810000000000
(1706000002.170000) vcan0 100#0F51800000000000
(1706000002.180000) vcan0 100#C650810000000000
(1706000002.190000) vcan0 100#2551810000000000
(1706000002.200000) vcan0 100#8451810000000000
(1706000002.210000) vcan0 100#8051810000000000
(1706000002.220000) vcan0 100#FE51800000000000
(1706000002.230000) vcan0 100#D651800000000000
(1706000002.240000) vcan0 100#1252800000000000
(1706000002.250000) vcan0 100#3F52810000000000
(1706000002.260000) vcan0 100#BF51800000000000
(1706000002.270000) vcan0 100#8451800000000000
(1706000002.280000) vcan0 100#5052800000000000
(1706000002.290000) vcan0 100#3352800000000000
(1706000002.300000) vcan0 100#8751800000000000
(1706000002.310000) vcan0 100#E051800000000000
(1706000002.320000) vcan0 100#5352800000000000
(1706000002.330000) vcan0 100#FB51810000000000
(1706000002.340000) vcan0 100#B752800000000000
(1706000002.350000) vcan0 100#6252800000000000
(1706000002.360000) vcan0 100#7952800000000000
(1706000002.370000) vcan0 100#8F52810000000000
(1706000002.380000) vcan0 100#DD52810000000000
(1706000002.390000) vcan0 100#5153810000000000
(1706000002.400000) vcan0 100#BE52800000000000
(1706000002.410000) vcan0 100#C852810000000000
(1706000002.420000) vcan0 100#8D53810000000000
(1706000002.430000) vcan0 100#0853810000000000
(1706000002.440000) vcan0 100#4853810000000000
(1706000002.450000) vcan0 100#EA52800000000000
(1706000002.460000) vcan0 100#4953800000000000
(1706000002.470000) vcan0 100#3A53810000000000
(1706000002.480000) vcan0 100#6653800000000000
(1706000002.490000) vcan0 100#8F53800000000000
(1706000002.500000) vcan0 100#DA53800000000000
(1706000002.510000) vcan0 100#9D53810000000000
(1706000002.520000) vcan0 100#2F53810000000000
(1706000002.530000) vcan0 100#6953800000000000
(1706000002.540000) vcan0 100#5E53800000000000
(1706000002.550000) vcan0 100#AA53800000000000
(1706000002.560000) vcan0 100#7F54800000000000
(1706000002.570000) vcan0 100#8F54810000000000
(1706000002.580000) vcan0 100#F253800000000000
(1706000002.590000) vcan0 100#B353810000000000
(1706000002.600000) vcan0 100#1F55800000000000
(1706000002.610000) vcan0 100#B754810000000000
(1706000002.620000) vcan0 100#CA54810000000000
(1706000002.630000) vcan0 100#4655800000000000
(1706000002.640000) vcan0 100#1154800000000000
(1706000002.650000) vcan0 100#4954810000000000
(1706000002.660000) vcan0 100#F654800000000000
(1706000002.670000) vcan0 100#3855810000000000
(1706000002.680000) vcan0 100#8F54810000000000
(1706000002.690000) vcan0 100#6E55800000000000
(1706000002.700000) vcan0 100#9955810000000000
(1706000002.710000) vcan0 100#B154800000000000
(1706000002.720000) vcan0 100#0B55810000000000
(1706000002.730000) vcan0 100#0156810000000000
(1706000002.740000) vcan0 100#BD55800000000000
(1706000002.750000) vcan0 100#C755810000000000
(1706000002.760000) vcan0 100#0955810000000000
(1706000002.770000) vcan0 100#2356810000000000
(1706000002.780000) vcan0 100#3455810000000000
(1706000002.790000) vcan0 100#2E56800000000000
(1706000002.800000) vcan0 100#C355810000000000
(1706000002.810000) vcan0 100#F055810000000000
(1706000002.820000) vcan0 100#7B56810000000000
(1706000002.830000) vcan0 100#8655810000000000
(1706000002.840000) vcan0 100#5256810000000000
(1706000002.850000) vcan0 100#7D56810000000000
(1706000002.860000) vcan0 100#9756810000000000
(1706000002.870000) vcan0 100#0556810000000000
(1706000002.880000) vcan0 100#7556810000000000
(1706000002.890000) vcan0 100#6256810000000000
(1706000002.900000) vcan0 100#3856810000000000
(1706000002.910000) vcan0 100#0F57800000000000
(1706000002.920000) vcan0 100#3157800000000000
(1706000002.930000) vcan0 100#AF56810000000000
(1706000002.940000) vcan0 100#A256800000000000
(1706000002.950000) vcan0 100#5957800000000000
(1706000002.960000) vcan0 100#8856810000000000
(1706000002.970000) vcan0 100#C656810000000000
(1706000002.980000) vcan0 100#5657810000000000
(1706000002.990000) vcan0 100#7356810000000000
(1706000003.000000) vcan0 100#9D56810000000000
(1706000003.010000) vcan0 100#3C57810000000000
(1706000003.020000) vcan0 100#9357810000000000
(1706000003.030000) vcan0 100#5D57810000000000
(1706000003.040000) vcan0 100#E156810000000000
(1706000003.050000) vcan0 100#C357810000000000
(1706000003.060000) vcan0 100#AC57810000000000
(1706000003.070000) vcan0 100#AA57810000000000
(1706000003.080000) vcan0 100#0658810000000000
(1706000003.090000) vcan0 100#0658810000000000
(1706000003.100000) vcan0 100#7757800000000000
(1706000003.110000) vcan0 100#7257800000000000
(1706000003.120000) vcan0 100#FA57810000000000
(1706000003.130000) vcan0 100#8E57810000000000
(1706000003.140000) vcan0 100#0658810000000000
(1706000003.150000) vcan0 100#C358810000000000
(1706000003.160000) vcan0 100#DE57810000000000
(1706000003.170000) vcan0 100#CE57810000000000
(1706000003.180000) vcan0 100#D757800000000000
(1706000003.190000) vcan0 100#6358810000000000
(1706000003.200000) vcan0 100#0D59810000000000
(1706000003.210000) vcan0 100#BA58810000000000
(1706000003.220000) vcan0 100#0559810000000000
(1706000003.230000) vcan0 100#1559810000000000
(1706000003.240000) vcan0 100#9658810000000000
(1706000003.250000) vcan0 100#4058810000000000
(1706000003.260000) vcan0 100#5959810000000000
(1706000003.270000) vcan0 100#3D59810000000000
(1706000003.280000) vcan0 100#4458810000000000
(1706000003.290000) vcan0 100#4B58810000000000
(1706000003.300000) vcan0 100#0D59810000000000
(1706000003.310000) vcan0 100#B259810000000000
(1706000003.320000) vcan0 100#7059810000000000
(1706000003.330000) vcan0 100#8759810000000000
(1706000003.340000) vcan0 100#3659810000000000
(1706000003.350000) vcan0 100#2859810000000000
(1706000003.360000) vcan0 100#F659810000000000
(1706000003.370000) vcan0 100#8259810000000000
(1706000003.380000) vcan0 100#B959810000000000
(1706000003.390000) vcan0 100#0B59810000000000
(1706000003.400000) vcan0 100#B859810000000000
(1706000003.410000) vcan0 100#1A59810000000000
(1706000003.420000) vcan0 100#EB58810000000000
(1706000003.430000) vcan0 100#C859810000000000
(1706000003.440000) vcan0 100#5659810000000000
(1706000003.450000) vcan0 100#095A810000000000
(1706000003.460000) vcan0 100#105A810000000000
(1706000003.470000) vcan0 100#405A810000000000
(1706000003.480000) vcan0 100#205A810000000000
(1706000003.490000) vcan0 100#DA59810000000000
(1706000003.500000) vcan0 100#355A810000000000
(1706000003.510000) vcan0 100#805A810000000000
(1706000003.520000) vcan0 100#A459810000000000
(1706000003.530000) vcan0 100#7E5A810000000000
(1706000003.540000) vcan0 100#E859810000000000
(1706000003.550000) vcan0 100#815A810000000000
(1706000003.560000) vcan0 100#E75A810000000000
(1706000003.570000) vcan0 100#555A810000000000
(1706000003.580000) vcan0 100#C159810000000000
(1706000003.590000) vcan0 100#305A810000000000
(1706000003.600000) vcan0 100#EB59810000000000
(1706000003.610000) vcan0 100#FC5A810000000000
(1706000003.620000) vcan0 100#315B810000000000
(1706000003.630000) vcan0 100#DA5A810000000000
(1706000003.640000) vcan0 100#075A810000000000
(1706000003.650000) vcan0 100#AA5A810000000000
(1706000003.660000) vcan0 100#525B810000000000
(1706000003.670000) vcan0 100#E95A810000000000
(1706000003.680000) vcan0 100#D35A810000000000
(1706000003.690000) vcan0 100#AC5A810000000000
(1706000003.700000) vcan0 100#285B810000000000
(1706000003.710000) vcan0 100#BB5A810000000000
(1706000003.720000) vcan0 100#B75A810000000000
(1706000003.730000) vcan0 100#7B5B810000000000
(1706000003.740000) vcan0 100#085B810000000000
(1706000003.750000) vcan0 100#E45A810000000000
(1706000003.760000) vcan0 100#0B5B810000000000
(1706000003.770000) vcan0 100#E35B810000000000
(1706000003.780000) vcan0 100#515B810000000000
(1706000003.790000) vcan0 100#DE5A810000000000
(1706000003.800000) vcan0 100#B05B810000000000
(1706000003.810000) vcan0 100#BC5B810000000000
(1706000003.820000) vcan0 100#7C5B810000000000
(1706000003.830000) vcan0 100#5E5B810000000000
(1706000003.840000) vcan0 100#F95A810000000000
(1706000003.850000) vcan0 100#AE5B810000000000
(1706000003.860000) vcan0 100#195B810000000000
(1706000003.870000) vcan0 100#AE5B810000000000
(1706000003.880000) vcan0 100#525C810000000000
(1706000003.890000) vcan0 100#A15B810000000000
(1706000003.900000) vcan0 100#2D5C810000000000
(1706000003.910000) vcan0 100#0D5C810000000000
(1706000003.920000) vcan0 100#7B5B810000000000
(1706000003.930000) vcan0 100#7D5C810000000000
(1706000003.940000) vcan0 100#EF5B810000000000
(1706000003.950000) vcan0 100#7A5C810000000000
(1706000003.960000) vcan0 100#745C810000000000
(1706000003.970000) vcan0 100#A95B810000000000
(1706000003.980000) vcan0 100#E25B810000000000
(1706000003.990000) vcan0 100#0B5C810000000000
(1706000004.000000) vcan0 100#C55B810000000000
(1706000004.010000) vcan0 100#385C810000000000
(1706000004.020000) vcan0 100#1F5C810000000000
(1706000004.030000) vcan0 100#385C810000000000
(1706000004.040000) vcan0 100#455C810000000000
(1706000004.050000) vcan0 100#2B5C810000000000
(1706000004.060000) vcan0 100#D55B810000000000
(1706000004.070000) vcan0 100#645C810000000000
(1706000004.080000) vcan0 100#B45C810000000000
(1706000004.090000) vcan0 100#B15C810000000000
(1706000004.100000) vcan0 100#D05C810000000000
(1706000004.110000) vcan0 100#A45C810000000000
(1706000004.120000) vcan0 100#1B5D810000000000
(1706000004.130000) vcan0 100#D65B810000000000
(1706000004.140000) vcan0 100#A15C810000000000
(1706000004.150000) vcan0 100#0C5D810000000000
(1706000004.160000) vcan0 100#985C810000000000
(1706000004.170000) vcan0 100#E55C810000000000
(1706000004.180000) vcan0 100#D45C810000000000
(1706000004.190000) vcan0 100#9A5C810000000000
(1706000004.200000) vcan0 100#735C810000000000
(1706000004.210000) vcan0 100#E75C810000000000
(1706000004.220000) vcan0 100#355D810000000000
(1706000004.230000) vcan0 100#965C810000000000
(1706000004.240000) vcan0 100#135D810000000000
(1706000004.250000) vcan0 100#505D810000000000
(1706000004.260000) vcan0 100#3B5C810000000000
(1706000004.270000) vcan0 100#6E5D810000000000
(1706000004.280000) vcan0 100#375D810000000000
(1706000004.290000) vcan0 100#595C810000000000
(1706000004.300000) vcan0 100#6F5D810000000000
(1706000004.310000) vcan0 100#365D810000000000
(1706000004.320000) vcan0 100#585C810000000000
(1706000004.330000) vcan0 100#B55C810000000000
(1706000004.340000) vcan0 100#875C810000000000
(1706000004.350000) vcan0 100#205D810000000000
(1706000004.360000) vcan0 100#9B5C810000000000
(1706000004.370000) vcan0 100#975D810000000000
(1706000004.380000) vcan0 100#BE5C810000000000
(1706000004.390000) vcan0 100#A15C810000000000
(1706000004.400000) vcan0 100#CE5C810000000000
(1706000004.410000) vcan0 100#7D5C810000000000
(1706000004.420000) vcan0 100#BC5D810000000000
(1706000004.430000) vcan0 100#BB5C810000000000
(1706000004.440000) vcan0 100#025D810000000000
(1706000004.450000) vcan0 100#6E5D810000000000
(1706000004.460000) vcan0 100#EA5C810000000000
(1706000004.470000) vcan0 100#DC5C810000000000
(1706000004.480000) vcan0 100#455D810000000000
(1706000004.490000) vcan0 100#695D810000000000
(1706000004.500000) vcan0 100#C05D810000000000
(1706000004.510000) vcan0 100#C05D810000000000
(1706000004.520000) vcan0 100#0D5D810000000000
(1706000004.530000) vcan0 100#A25D810000000000
(1706000004.540000) vcan0 100#C65C810000000000
(1706000004.550000) vcan0 100#675D810000000000
(1706000004.560000) vcan0 100#215D810000000000
(1706000004.570000) vcan0 100#965D810000000000
(1706000004.580000) vcan0 100#A45D810000000000
(1706000004.590000) vcan0 100#B65D810000000000
(1706000004.600000) vcan0 100#B35D810000000000
(1706000004.610000) vcan0 100#AB5D810000000000
(1706000004.620000) vcan0 100#B55D810000000000
(1706000004.630000) vcan0 100#705D810000000000
(1706000004.640000) vcan0 100#C05D810000000000
(1706000004.650000) vcan0 100#435D810000000000
(1706000004.660000) vcan0 100#1C5D810000000000
(1706000004.670000) vcan0 100#9F5D810000000000
(1706000004.680000) vcan0 100#9E5D810000000000
(1706000004.690000) vcan0 100#C05D810000000000
(1706000004.700000) vcan0 100#C05D810000000000
(1706000004.710000) vcan0 100#C05D810000000000
(1706000004.720000) vcan0 100#655D810000000000
(1706000004.730000) vcan0 100#C05D810000000000
(1706000004.740000) vcan0 100#C05D810000000000
(1706000004.750000) vcan0 100#C05D810000000000
(1706000004.760000) vcan0 100#C05D810000000000
(1706000004.770000) vcan0 100#7A5D810000000000
(1706000004.780000) vcan0 100#005D810000000000
(1706000004.790000) vcan0 100#9D5D810000000000
(1706000004.800000) vcan0 100#C05D810000000000
(1706000004.810000) vcan0 100#C05D810000000000
(1706000004.820000) vcan0 100#285D810000000000
(1706000004.830000) vcan0 100#0C5D810000000000
(1706000004.840000) vcan0 100#C05D810000000000
(1706000004.850000) vcan0 100#545D810000000000
(1706000004.860000) vcan0 100#C05D810000000000
(1706000004.870000) vcan0 100#735D810000000000
(1706000004.880000) vcan0 100#3B5D810000000000
(1706000004.890000) vcan0 100#765D810000000000
(1706000004.900000) vcan0 100#2E5D810000000000
(1706000004.910000) vcan0 100#3C5D810000000000
(1706000004.920000) vcan0 100#C05D810000000000
(1706000004.930000) vcan0 100#C05D810000000000
(1706000004.940000) vcan0 100#C05D810000000000
(1706000004.950000) vcan0 100#A15D810000000000
(1706000004.960000) vcan0 100#BC5D810000000000
(1706000004.970000) vcan0 100#C05D810000000000
(1706000004.980000) vcan0 100#925D810000000000
(1706000004.990000) vcan0 100#C05D810000000000
(1706000005.000000) vcan0 100#335D810000000000
(1706000005.010000) vcan0 100#C05D810000000000
(1706000005.020000) vcan0 100#8E5D810000000000
(1706000005.030000) vcan0 100#525D810000000000
(1706000005.040000) vcan0 100#C05D810000000000
(1706000005.050000) vcan0 100#C05D810000000000
(1706000005.060000) vcan0 100#C05D810000000000
(1706000005.070000) vcan0 100#C05D810000000000
(1706000005.080000) vcan0 100#3A5D810000000000
(1706000005.090000) vcan0 100#255D810000000000
(1706000005.100000) vcan0 100#555D810000000000
(1706000005.110000) vcan0 100#C05D810000000000
(1706000005.120000) vcan0 100#3E5D810000000000
(1706000005.130000) vcan0 100#0A5D810000000000
(1706000005.140000) vcan0 100#3A5D810000000000
(1706000005.150000) vcan0 100#5E5D810000000000
(1706000005.160000) vcan0 100#C05D810000000000
(1706000005.170000) vcan0 100#095D810000000000
(1706000005.180000) vcan0 100#565D810000000000
(1706000005.190000) vcan0 100#3E5D810000000000
(1706000005.200000) vcan0 100#C05D810000000000
(1706000005.210000) vcan0 100#C05D810000000000
(1706000005.220000) vcan0 100#C05D810000000000
(1706000005.230000) vcan0 100#1F5D810000000000
(1706000005.240000) vcan0 100#C05D810000000000
(1706000005.250000) vcan0 100#C05D810000000000
(1706000005.260000) vcan0 100#AA5D810000000000
(1706000005.270000) vcan0 100#C05D810000000000
(1706000005.280000) vcan0 100#975D810000000000
(1706000005.290000) vcan0 100#C05D810000000000
(1706000005.300000) vcan0 100#C05D810000000000
(1706000005.310000) vcan0 100#035D810000000000
(1706000005.320000) vcan0 100#FB5C810000000000
(1706000005.330000) vcan0 100#C05D810000000000
(1706000005.340000) vcan0 100#505D810000000000
(1706000005.350000) vcan0 100#965D810000000000
(1706000005.360000) vcan0 100#AD5D810000000000
(1706000005.370000) vcan0 100#C05D810000000000
(1706000005.380000) vcan0 100#B65D810000000000
(1706000005.390000) vcan0 100#C05D810000000000
(1706000005.400000) vcan0 100#6A5D810000000000
(1706000005.410000) vcan0 100#3E5D810000000000
(1706000005.420000) vcan0 100#565D810000000000
(1706000005.430000) vcan0 100#565D810000000000
(1706000005.440000) vcan0 100#405D810000000000
(1706000005.450000) vcan0 100#C05D810000000000
(1706000005.460000) vcan0 100#C05D810000000000
(1706000005.470000) vcan0 100#D25C810000000000
(1706000005.480000) vcan0 100#C05D810000000000
(1706000005.490000) vcan0 100#765D810000000000
(1706000005.500000) vcan0 100#185D810000000000
(1706000005.510000) vcan0 100#1C5D810000000000
(1706000005.520000) vcan0 100#A35D810000000000
(1706000005.530000) vcan0 100#945D810000000000
(1706000005.540000) vcan0 100#655D810000000000
(1706000005.550000) vcan0 100#585D810000000000
(1706000005.560000) vcan0 100#6F5D810000000000
(1706000005.570000) vcan0 100#A95C810000000000
(1706000005.580000) vcan0 100#005D810000000000
(1706000005.590000) vcan0 100#435D810000000000
(1706000005.600000) vcan0 100#9E5D810000000000
(1706000005.610000) vcan0 100#8F5D810000000000
(1706000005.620000) vcan0 100#4C5D810000000000
(1706000005.630000) vcan0 100#AB5D810000000000
(1706000005.640000) vcan0 100#BD5C810000000000
(1706000005.650000) vcan0 100#515D810000000000
(1706000005.660000) vcan0 100#CB5C810000000000
(1706000005.670000) vcan0 100#805D810000000000
(1706000005.680000) vcan0 100#D55C810000000000
(1706000005.690000) vcan0 100#215D810000000000
(1706000005.700000) vcan0 100#435D810000000000
(1706000005.710000) vcan0 100#CA5C810000000000
(1706000005.720000) vcan0 100#B25C810000000000
(1706000005.730000) vcan0 100#3B5D810000000000
(1706000005.740000) vcan0 100#415C810000000000
(1706000005.750000) vcan0 100#545C810000000000
(1706000005.760000) vcan0 100#045D810000000000
(1706000005.770000) vcan0 100#F95C810000000000
(1706000005.780000) vcan0 100#A55C810000000000
(1706000005.790000) vcan0 100#0C5D810000000000
(1706000005.800000) vcan0 100#935C810000000000
(1706000005.810000) vcan0 100#E35C810000000000
(1706000005.820000) vcan0 100#D85C810000000000
(1706000005.830000) vcan0 100#725C810000000000
(1706000005.840000) vcan0 100#E25B810000000000
(1706000005.850000) vcan0 100#225C810000000000
(1706000005.860000) vcan0 100#2B5C810000000000
(1706000005.870000) vcan0 100#CC5B810000000000
(1706000005.880000) vcan0 100#005C810000000000
(1706000005.890000) vcan0 100#B25C810000000000
(1706000005.900000) vcan0 100#D85C810000000000
(1706000005.910000) vcan0 100#C45B810000000000
(1706000005.920000) vcan0 100#B25B810000000000
(1706000005.930000) vcan0 100#DF5C810000000000
(1706000005.940000) vcan0 100#5E5C810000000000
(1706000005.950000) vcan0 100#855C810000000000
(1706000005.960000) vcan0 100#AB5B810000000000
(1706000005.970000) vcan0 100#ED5B810000000000
(1706000005.980000) vcan0 100#4C5C810000000000
(1706000005.990000) vcan0 100#AE5C810000000000
(1706000006.000000) vcan0 100#8B5C810000000000
(1706000006.010000) vcan0 100#285C810000000000
(1706000006.020000) vcan0 100#DB5B810000000000
(1706000006.030000) vcan0 100#BF5B810000000000
(1706000006.040000) vcan0 100#7A5B810000000000
(1706000006.050000) vcan0 100#5E5B810000000000
(1706000006.060000) vcan0 100#6B5C810000000000
(1706000006.070000) vcan0 100#245C810000000000
(1706000006.080000) vcan0 100#395C810000000000
(1706000006.090000) vcan0 100#455B810000000000
(1706000006.100000) vcan0 100#DC5B810000000000
(1706000006.110000) vcan0 100#E55B810000000000
(1706000006.120000) vcan0 100#055C810000000000
(1706000006.130000) vcan0 100#F55B810000000000
(1706000006.140000) vcan0 100#805B810000000000
(1706000006.150000) vcan0 100#9F5B810000000000
(1706000006.160000) vcan0 100#AA5B810000000000
(1706000006.170000) vcan0 100#A15B810000000000
(1706000006.180000) vcan0 100#D25A810000000000
(1706000006.190000) vcan0 100#1B5B810000000000
(1706000006.200000) vcan0 100#BA5A810000000000
(1706000006.210000) vcan0 100#095B810000000000
(1706000006.220000) vcan0 100#A65A810000000000
(1706000006.230000) vcan0 100#A25A810000000000
(1706000006.240000) vcan0 100#AA5B810000000000
(1706000006.250000) vcan0 100#255B810000000000
(1706000006.260000) vcan0 100#2B5B810000000000
(1706000006.270000) vcan0 100#985B810000000000
(1706000006.280000) vcan0 100#6F5B810000000000
(1706000006.290000) vcan0 100#B85A810000000000
(1706000006.300000) vcan0 100#715A810000000000
(1706000006.310000) vcan0 100#565A810000000000
(1706000006.320000) vcan0 100#9F5A810000000000
(1706000006.330000) vcan0 100#CD5A810000000000
(1706000006.340000) vcan0 100#675A810000000000
(1706000006.350000) vcan0 100#9F5A810000000000
(1706000006.360000) vcan0 100#315A810000000000
(1706000006.370000) vcan0 100#515A810000000000
(1706000006.380000) vcan0 100#595A810000000000
(1706000006.390000) vcan0 100#EC5A810000000000
(1706000006.400000) vcan0 100#E259810000000000
(1706000006.410000) vcan0 100#AD5A810000000000
(1706000006.420000) vcan0 100#B25A810000000000
(1706000006.430000) vcan0 100#E65A810000000000
(1706000006.440000) vcan0 100#105A810000000000
(1706000006.450000) vcan0 100#C059810000000000
(1706000006.460000) vcan0 100#D75A810000000000
(1706000006.470000) vcan0 100#005A810000000000
(1706000006.480000) vcan0 100#B45A810000000000
(1706000006.490000) vcan0 100#E259810000000000
(1706000006.500000) vcan0 100#6F5A810000000000
(1706000006.510000) vcan0 100#685A810000000000
(1706000006.520000) vcan0 100#295A810000000000
(1706000006.530000) vcan0 100#0E5A810000000000
(1706000006.540000) vcan0 100#9D59810000000000
(1706000006.550000) vcan0 100#5159810000000000
(1706000006.560000) vcan0 100#525A810000000000
(1706000006.570000) vcan0 100#4759810000000000
(1706000006.580000) vcan0 100#0559810000000000
(1706000006.590000) vcan0 100#0059810000000000
(1706000006.600000) vcan0 100#F559810000000000
(1706000006.610000) vcan0 100#CF58810000000000
(1706000006.620000) vcan0 100#C259810000000000
(1706000006.630000) vcan0 100#2C59810000000000
(1706000006.640000) vcan0 100#BE59810000000000
(1706000006.650000) vcan0 100#A959810000000000
(1706000006.660000) vcan0 100#1859810000000000
(1706000006.670000) vcan0 100#5E59810000000000
(1706000006.680000) vcan0 100#FF58810000000000
(1706000006.690000) vcan0 100#5C59810000000000
(1706000006.700000) vcan0 100#0359810000000000
(1706000006.710000) vcan0 100#5559810000000000
(1706000006.720000) vcan0 100#5059810000000000
(1706000006.730000) vcan0 100#6959810000000000
(1706000006.740000) vcan0 100#B058810000000000
(1706000006.750000) vcan0 100#8658810000000000
(1706000006.760000) vcan0 100#4559810000000000
(1706000006.770000) vcan0 100#FC58810000000000
(1706000006.780000) vcan0 100#2C58810000000000
(1706000006.790000) vcan0 100#F958810000000000
(1706000006.800000) vcan0 100#DA57810000000000
(1706000006.810000) vcan0 100#D358810000000000
(1706000006.820000) vcan0 100#A558810000000000
(1706000006.830000) vcan0 100#C858810000000000
(1706000006.840000) vcan0 100#1458810000000000
(1706000006.850000) vcan0 100#B957810000000000
(1706000006.860000) vcan0 100#D757810000000000
(1706000006.870000) vcan0 100#5F57810000000000
(1706000006.880000) vcan0 100#9057810000000000
(1706000006.890000) vcan0 100#B257810000000000
(1706000006.900000) vcan0 100#6658810000000000
(1706000006.910000) vcan0 100#F457810000000000
(1706000006.920000) vcan0 100#3057810000000000
(1706000006.930000) vcan0 100#1358810000000000
(1706000006.940000) vcan0 100#1057810000000000
(1706000006.950000) vcan0 100#6E57810000000000
(1706000006.960000) vcan0 100#DC56810000000000
(1706000006.970000) vcan0 100#D657810000000000
(1706000006.980000) vcan0 100#A057810000000000
(1706000006.990000) vcan0 100#B756810000000000
(1706000007.000000) vcan0 100#E956810000000000
(1706000007.010000) vcan0 100#0357810000000000
(1706000007.020000) vcan0 100#0057810000000000
(1706000007.030000) vcan0 100#8D57810000000000
(1706000007.040000) vcan0 100#4456810000000000
(1706000007.050000) vcan0 100#8256810000000000
(1706000007.060000) vcan0 100#B456810000000000
(1706000007.070000) vcan0 100#6156810000000000
(1706000007.080000) vcan0 100#E556810000000000
(1706000007.090000) vcan0 100#4157810000000000
(1706000007.100000) vcan0 100#9356810000000000
(1706000007.110000) vcan0 100#2457810000000000
(1706000007.120000) vcan0 100#4156810000000000
(1706000007.130000) vcan0 100#8656820000000000
(1706000007.140000) vcan0 100#EE55810000000000
(1706000007.150000) vcan0 100#9956810000000000
(1706000007.160000) vcan0 100#7456810000000000
(1706000007.170000) vcan0 100#7156810000000000
(1706000007.180000) vcan0 100#C555810000000000
(1706000007.190000) vcan0 100#FE55810000000000
(1706000007.200000) vcan0 100#6A55810000000000
(1706000007.210000) vcan0 100#BE55810000000000
(1706000007.220000) vcan0 100#E855810000000000
(1706000007.230000) vcan0 100#0E55810000000000
(1706000007.240000) vcan0 100#8755810000000000
(1706000007.250000) vcan0 100#E354810000000000
(1706000007.260000) vcan0 100#D054820000000000
(1706000007.270000) vcan0 100#6555820000000000
(1706000007.280000) vcan0 100#5D55810000000000
(1706000007.290000) vcan0 100#9455810000000000
(1706000007.300000) vcan0 100#F754810000000000
(1706000007.310000) vcan0 100#9755810000000000
(1706000007.320000) vcan0 100#8054810000000000
(1706000007.330000) vcan0 100#7B55810000000000
(1706000007.340000) vcan0 100#6A55810000000000
(1706000007.350000) vcan0 100#7455810000000000
(1706000007.360000) vcan0 100#B954820000000000
(1706000007.370000) vcan0 100#AE54820000000000
(1706000007.380000) vcan0 100#E554810000000000
(1706000007.390000) vcan0 100#A654820000000000
(1706000007.400000) vcan0 100#7F54810000000000
(1706000007.410000) vcan0 100#C853810000000000
(1706000007.420000) vcan0 100#0554810000000000
(1706000007.430000) vcan0 100#1C54810000000000
(1706000007.440000) vcan0 100#EE53810000000000
(1706000007.450000) vcan0 100#9254810000000000
(1706000007.460000) vcan0 100#AC54810000000000
(1706000007.470000) vcan0 100#9254820000000000
(1706000007.480000) vcan0 100#4053810000000000
(1706000007.490000) vcan0 100#9253820000000000
(1706000007.500000) vcan0 100#EE53820000000000
(1706000007.510000) vcan0 100#1D53810000000000
(1706000007.520000) vcan0 100#EA53810000000000
(1706000007.530000) vcan0 100#DB52820000000000
(1706000007.540000) vcan0 100#3153810000000000
(1706000007.550000) vcan0 100#6453810000000000
(1706000007.560000) vcan0 100#7753820000000000
(1706000007.570000) vcan0 100#F752820000000000
(1706000007.580000) vcan0 100#2A53810000000000
(1706000007.590000) vcan0 100#D852820000000000
(1706000007.600000) vcan0 100#9052810000000000
(1706000007.610000) vcan0 100#2753810000000000
(1706000007.620000) vcan0 100#9852810000000000
(1706000007.630000) vcan0 100#5752810000000000
(1706000007.640000) vcan0 100#8452820000000000
(1706000007.650000) vcan0 100#3752820000000000
(1706000007.660000) vcan0 100#6B52810000000000
(1706000007.670000) vcan0 100#D652810000000000
(1706000007.680000) vcan0 100#D152810000000000
(1706000007.690000) vcan0 100#9F51820000000000
(1706000007.700000) vcan0 100#9552810000000000
(1706000007.710000) vcan0 100#D151810000000000
(1706000007.720000) vcan0 100#0152820000000000
(1706000007.730000) vcan0 100#5952820000000000
(1706000007.740000) vcan0 100#5F52820000000000
(1706000007.750000) vcan0 100#1B52820000000000
(1706000007.760000) vcan0 100#1951810000000000
(1706000007.770000) vcan0 100#0A51820000000000
(1706000007.780000) vcan0 100#CD50820000000000
(1706000007.790000) vcan0 100#3051820000000000
(1706000007.800000) vcan0 100#5C51820000000000
(1706000007.810000) vcan0 100#A250810000000000
(1706000007.820000) vcan0 100#CE51820000000000
(1706000007.830000) vcan0 100#1251820000000000
(1706000007.840000) vcan0 100#6551810000000000
(1706000007.850000) vcan0 100#8451820000000000
(1706000007.860000) vcan0 100#B750820000000000
(1706000007.870000) vcan0 100#7C50820000000000
(1706000007.880000) vcan0 100#0051820000000000
(1706000007.890000) vcan0 100#1750820000000000
(1706000007.900000) vcan0 100#5A50820000000000
(1706000007.910000) vcan0 100#BF4F810000000000
(1706000007.920000) vcan0 100#CC4F810000000000
(1706000007.930000) vcan0 100#F14F820000000000
(1706000007.940000) vcan0 100#E44F820000000000
(1706000007.950000) vcan0 100#8F50820000000000
(1706000007.960000) vcan0 100#964F820000000000
(1706000007.970000) vcan0 100#E94F810000000000
(1706000007.980000) vcan0 100#7C4F820000000000
(1706000007.990000) vcan0 100#AC4F810000000000
(1706000008.000000) vcan0 100#3050810000000000
(1706000008.010000) vcan0 100#B64F820000000000
(1706000008.020000) vcan0 100#8D4F820000000000
(1706000008.030000) vcan0 100#684F820000000000
(1706000008.040000) vcan0 100#954E810000000000
(1706000008.050000) vcan0 100#564F820000000000
(1706000008.060000) vcan0 100#434F820000000000
(1706000008.070000) vcan0 100#D94E820000000000
(1706000008.080000) vcan0 100#DF4E820000000000
(1706000008.090000) vcan0 100#7F4E820000000000
(1706000008.100000) vcan0 100#AC4E820000000000
(1706000008.110000) vcan0 100#DD4E820000000000
(1706000008.120000) vcan0 100#EE4D810000000000
(1706000008.130000) vcan0 100#584E820000000000
(1706000008.140000) vcan0 100#EE4D820000000000
(1706000008.150000) vcan0 100#FD4D820000000000
(1706000008.160000) vcan0 100#7B4E820000000000
(1706000008.170000) vcan0 100#B84E810000000000
(1706000008.180000) vcan0 100#CC4D820000000000
(1706000008.190000) vcan0 100#A34D820000000000
(1706000008.200000) vcan0 100#794D820000000000
(1706000008.210000) vcan0 100#264D820000000000
(1706000008.220000) vcan0 100#744D820000000000
(1706000008.230000) vcan0 100#2C4D820000000000
(1706000008.240000) vcan0 100#F64C820000000000
(1706000008.250000) vcan0 100#714D820000000000
(1706000008.260000) vcan0 100#9B4D820000000000
(1706000008.270000) vcan0 100#2C4D820000000000
(1706000008.280000) vcan0 100#CC4C810000000000
(1706000008.290000) vcan0 100#944D820000000000
(1706000008.300000) vcan0 100#844D820000000000
(1706000008.310000) vcan0 100#944C810000000000
(1706000008.320000) vcan0 100#AE4C820000000000
(1706000008.330000) vcan0 100#CE4C820000000000
(1706000008.340000) vcan0 100#8D4C820000000000
(1706000008.350000) vcan0 100#504C820000000000
(1706000008.360000) vcan0 100#A04C820000000000
(1706000008.370000) vcan0 100#094C820000000000
(1706000008.380000) vcan0 100#394C820000000000
(1706000008.390000) vcan0 100#1A4C820000000000
(1706000008.400000) vcan0 100#F14B820000000000
(1706000008.410000) vcan0 100#8A4B820000000000
(1706000008.420000) vcan0 100#FE4B820000000000
(1706000008.430000) vcan0 100#4E4C820000000000
(1706000008.440000) vcan0 100#F64B820000000000
(1706000008.450000) vcan0 100#104C820000000000
(1706000008.460000) vcan0 100#F34A820000000000
(1706000008.470000) vcan0 100#454B820000000000
(1706000008.480000) vcan0 100#AD4A820000000000
(1706000008.490000) vcan0 100#0A4B820000000000
(1706000008.500000) vcan0 100#214B820000000000
(1706000008.510000) vcan0 100#A64A820000000000
(1706000008.520000) vcan0 100#534A820000000000
(1706000008.530000) vcan0 100#054B820000000000
(1706000008.540000) vcan0 100#5F4A820000000000
(1706000008.550000) vcan0 100#8B4A820000000000
(1706000008.560000) vcan0 100#204A820000000000
(1706000008.570000) vcan0 100#1F4A820000000000
(1706000008.580000) vcan0 100#DE4A820000000000
(1706000008.590000) vcan0 100#844A820000000000
(1706000008.600000) vcan0 100#454A820000000000
(1706000008.610000) vcan0 100#E149820000000000
(1706000008.620000) vcan0 100#344A820000000000
(1706000008.630000) vcan0 100#D349820000000000
(1706000008.640000) vcan0 100#BC49820000000000
(1706000008.650000) vcan0 100#B349820000000000
(1706000008.660000) vcan0 100#E449820000000000
(1706000008.670000) vcan0 100#9249820000000000
(1706000008.680000) vcan0 100#D749820000000000
(1706000008.690000) vcan0 100#7748820000000000
(1706000008.700000) vcan0 100#8C48820000000000
(1706000008.710000) vcan0 100#CE48820000000000
(1706000008.720000) vcan0 100#6849820000000000
(1706000008.730000) vcan0 100#0E49820000000000
(1706000008.740000) vcan0 100#2248820000000000
(1706000008.750000) vcan0 100#4A48820000000000
(1706000008.760000) vcan0 100#7748820000000000
(1706000008.770000) vcan0 100#E147820000000000
(1706000008.780000) vcan0 100#0348820000000000
(1706000008.790000) vcan0 100#8148820000000000
(1706000008.800000) vcan0 100#3A48820000000000
(1706000008.810000) vcan0 100#1548820000000000
(1706000008.820000) vcan0 100#7B47820000000000
(1706000008.830000) vcan0 100#5947820000000000
(1706000008.840000) vcan0 100#5947820000000000
(1706000008.850000) vcan0 100#2047820000000000
(1706000008.860000) vcan0 100#2C47820000000000
(1706000008.870000) vcan0 100#EB47820000000000
(1706000008.880000) vcan0 100#E946820000000000
(1706000008.890000) vcan0 100#5D47820000000000
(1706000008.900000) vcan0 100#AE47820000000000
(1706000008.910000) vcan0 100#8B47820000000000
(1706000008.920000) vcan0 100#8746820000000000
(1706000008.930000) vcan0 100#0247820000000000
(1706000008.940000) vcan0 100#8846820000000000
(1706000008.950000) vcan0 100#7B46820000000000
(1706000008.960000) vcan0 100#7646820000000000
(1706000008.970000) vcan0 100#9346820000000000
(1706000008.980000) vcan0 100#5D46820000000000
(1706000008.990000) vcan0 100#BF45820000000000
(1706000009.000000) vcan0 100#0A46820000000000
(1706000009.010000) vcan0 100#4845820000000000
(1706000009.020000) vcan0 100#1746820000000000
(1706000009.030000) vcan0 100#1046820000000000
(1706000009.040000) vcan0 100#A845820000000000
(1706000009.050000) vcan0 100#5B45820000000000
(1706000009.060000) vcan0 100#E645820000000000
(1706000009.070000) vcan0 100#DD44820000000000
(1706000009.080000) vcan0 100#ED44820000000000
(1706000009.090000) vcan0 100#A145820000000000
(1706000009.100000) vcan0 100#1145820000000000
(1706000009.110000) vcan0 100#2B45820000000000
(1706000009.120000) vcan0 100#5345820000000000
(1706000009.130000) vcan0 100#2E45820000000000
(1706000009.140000) vcan0 100#2045820000000000
(1706000009.150000) vcan0 100#4E44820000000000
(1706000009.160000) vcan0 100#F144820000000000
(1706000009.170000) vcan0 100#D344820000000000
(1706000009.180000) vcan0 100#7543820000000000
(1706000009.190000) vcan0 100#7D43820000000000
(1706000009.200000) vcan0 100#A143820000000000
(1706000009.210000) vcan0 100#E143820000000000
(1706000009.220000) vcan0 100#5144820000000000
(1706000009.230000) vcan0 100#9143820000000000
(1706000009.240000) vcan0 100#F942820000000000
(1706000009.250000) vcan0 100#5843820000000000
(1706000009.260000) vcan0 100#DD42820000000000
(1706000009.270000) vcan0 100#9743820000000000
(1706000009.280000) vcan0 100#7043820000000000
(1706000009.290000) vcan0 100#7843820000000000
(1706000009.300000) vcan0 100#5343820000000000
(1706000009.310000) vcan0 100#3342820000000000
(1706000009.320000) vcan0 100#3B42820000000000
(1706000009.330000) vcan0 100#5142820000000000
(1706000009.340000) vcan0 100#1F42820000000000
(1706000009.350000) vcan0 100#B242820000000000
(1706000009.360000) vcan0 100#F841820000000000
(1706000009.370000) vcan0 100#7641820000000000
(1706000009.380000) vcan0 100#4B42820000000000
(1706000009.390000) vcan0 100#6641820000000000
(1706000009.400000) vcan0 100#B041820000000000
(1706000009.410000) vcan0 100#4142820000000000
(1706000009.420000) vcan0 100#5841820000000000
(1706000009.430000) vcan0 100#1242820000000000
(1706000009.440000) vcan0 100#8D41820000000000
(1706000009.450000) vcan0 100#C840820000000000
(1706000009.460000) vcan0 100#8541820000000000
(1706000009.470000) vcan0 100#F540820000000000
(1706000009.480000) vcan0 100#ED40820000000000
(1706000009.490000) vcan0 100#1641820000000000
(1706000009.500000) vcan0 100#6840820000000000
(1706000009.510000) vcan0 100#2941820000000000
(1706000009.520000) vcan0 100#7740820000000000
(1706000009.530000) vcan0 100#DA3F820000000000
(1706000009.540000) vcan0 100#B93F820000000000
(1706000009.550000) vcan0 100#3A40820000000000
(1706000009.560000) vcan0 100#A13F820000000000
(1706000009.570000) vcan0 100#0840820000000000
(1706000009.580000) vcan0 100#7E3F820000000000
(1706000009.590000) vcan0 100#3A3F820000000000
(1706000009.600000) vcan0 100#1C40820000000000
(1706000009.610000) vcan0 100#983F820000000000
(1706000009.620000) vcan0 100#DC3E820000000000
(1706000009.630000) vcan0 100#C93F820000000000
(1706000009.640000) vcan0 100#1D3F820000000000
(1706000009.650000) vcan0 100#7C3F820000000000
(1706000009.660000) vcan0 100#6A3E820000000000
(1706000009.670000) vcan0 100#553E820000000000
(1706000009.680000) vcan0 100#6C3F820000000000
(1706000009.690000) vcan0 100#503F820000000000
(1706000009.700000) vcan0 100#7C3E820000000000
(1706000009.710000) vcan0 100#DE3E820000000000
(1706000009.720000) vcan0 100#983E820000000000
(1706000009.730000) vcan0 100#F73E820000000000
(1706000009.740000) vcan0 100#B03E820000000000
(1706000009.750000) vcan0 100#E73D820000000000
(1706000009.760000) vcan0 100#303E820000000000
(1706000009.770000) vcan0 100#113E820000000000
(1706000009.780000) vcan0 100#4F3D820000000000
(1706000009.790000) vcan0 100#AE3D820000000000
(1706000009.800000) vcan0 100#273D820000000000
(1706000009.810000) vcan0 100#C53C820000000000
(1706000009.820000) vcan0 100#8E3D820000000000
(1706000009.830000) vcan0 100#413D820000000000
(1706000009.840000) vcan0 100#C13C820000000000
(1706000009.850000) vcan0 100#B03C820000000000
(1706000009.860000) vcan0 100#323D820000000000
(1706000009.870000) vcan0 100#343D820000000000
(1706000009.880000) vcan0 100#093D820000000000
(1706000009.890000) vcan0 100#E63B820000000000
(1706000009.900000) vcan0 100#E83B820000000000
(1706000009.910000) vcan0 100#7B3C820000000000
(1706000009.920000) vcan0 100#9E3B820000000000
(1706000009.930000) vcan0 100#FF3B820000000000
(1706000009.940000) vcan0 100#A23B820000000000
(1706000009.950000) vcan0 100#4E3B820000000000
(1706000009.960000) vcan0 100#843B820000000000
(1706000009.970000) vcan0 100#043C820000000000
(1706000009.980000) vcan0 100#BA3B820000000000
(1706000009.990000) vcan0 100#3D3B820000000000
(1706000010.000000) vcan0 100#E23A820000000000
(1706000010.010000) vcan0 100#E23A820000000000
(1706000010.020000) vcan0 100#8E3A820000000000
(1706000010.030000) vcan0 100#933B820000000000
(1706000010.040000) vcan0 100#1E3B820000000000
(1706000010.050000) vcan0 100#D43A820000000000
(1706000010.060000) vcan0 100#563B820000000000
(1706000010.070000) vcan0 100#033B820000000000
(1706000010.080000) vcan0 100#653A820000000000
(1706000010.090000) vcan0 100#3C3A820000000000
(1706000010.100000) vcan0 100#423A820000000000
(1706000010.110000) vcan0 100#EA39820000000000
(1706000010.120000) vcan0 100#803A820000000000
(1706000010.130000) vcan0 100#0F3A820000000000
(1706000010.140000) vcan0 100#F139820000000000
(1706000010.150000) vcan0 100#6739820000000000
(1706000010.160000) vcan0 100#D939820000000000
(1706000010.170000) vcan0 100#043A820000000000
(1706000010.180000) vcan0 100#BE39820000000000
(1706000010.190000) vcan0 100#0239820000000000
(1706000010.200000) vcan0 100#5C39820000000000
(1706000010.210000) vcan0 100#AE38820000000000
(1706000010.220000) vcan0 100#4F39820000000000
(1706000010.230000) vcan0 100#DD38820000000000
(1706000010.240000) vcan0 100#8E38820000000000
(1706000010.250000) vcan0 100#0338820000000000
(1706000010.260000) vcan0 100#3539820000000000
(1706000010.270000) vcan0 100#2639820000000000
(1706000010.280000) vcan0 100#0038820000000000
(1706000010.290000) vcan0 100#D737820000000000
(1706000010.300000) vcan0 100#3638820000000000
(1706000010.310000) vcan0 100#DE37820000000000
(1706000010.320000) vcan0 100#BB37820000000000
(1706000010.330000) vcan0 100#D637820000000000
(1706000010.340000) vcan0 100#2937820000000000
(1706000010.350000) vcan0 100#9037820000000000
(1706000010.360000) vcan0 100#1138820000000000
(1706000010.370000) vcan0 100#4537820000000000
(1706000010.380000) vcan0 100#E636820000000000
(1706000010.390000) vcan0 100#D836820000000000
(1706000010.400000) vcan0 100#2D37820000000000
(1706000010.410000) vcan0 100#7B36820000000000
(1706000010.420000) vcan0 100#B036820000000000
(1706000010.430000) vcan0 100#BF36820000000000
(1706000010.440000) vcan0 100#E536820000000000
(1706000010.450000) vcan0 100#F936820000000000
(1706000010.460000) vcan0 100#9F36820000000000
(1706000010.470000) vcan0 100#DD35820000000000
(1706000010.480000) vcan0 100#C235820000000000
(1706000010.490000) vcan0 100#1736820000000000
(1706000010.500000) vcan0 100#0E36820000000000
(1706000010.510000) vcan0 100#4935820000000000
(1706000010.520000) vcan0 100#4336820000000000
(1706000010.530000) vcan0 100#E935820000000000
(1706000010.540000) vcan0 100#7335820000000000
(1706000010.550000) vcan0 100#1835820000000000
(1706000010.560000) vcan0 100#AF34820000000000
(1706000010.570000) vcan0 100#1435820000000000
(1706000010.580000) vcan0 100#6035820000000000
(1706000010.590000) vcan0 100#0435820000000000
(1706000010.600000) vcan0 100#4134820000000000
(1706000010.610000) vcan0 100#2834820000000000
(1706000010.620000) vcan0 100#6934820000000000
(1706000010.630000) vcan0 100#F433820000000000
(1706000010.640000) vcan0 100#C034820000000000
(1706000010.650000) vcan0 100#F834820000000000
(1706000010.660000) vcan0 100#BE33820000000000
(1706000010.670000) vcan0 100#C533820000000000
(1706000010.680000) vcan0 100#8534820000000000
(1706000010.690000) vcan0 100#D733820000000000
(1706000010.700000) vcan0 100#BF33820000000000
(1706000010.710000) vcan0 100#7234820000000000
(1706000010.720000) vcan0 100#EB33820000000000
(1706000010.730000) vcan0 100#C633820000000000
(1706000010.740000) vcan0 100#D033820000000000
(1706000010.750000) vcan0 100#2F33820000000000
(1706000010.760000) vcan0 100#A332820000000000
(1706000010.770000) vcan0 100#B032820000000000
(1706000010.780000) vcan0 100#F232820000000000
(1706000010.790000) vcan0 100#0533820000000000
(1706000010.800000) vcan0 100#4532820000000000
(1706000010.810000) vcan0 100#1832820000000000
(1706000010.820000) vcan0 100#2033820000000000
(1706000010.830000) vcan0 100#7B32820000000000
(1706000010.840000) vcan0 100#D331820000000000
(1706000010.850000) vcan0 100#DA32820000000000
(1706000010.860000) vcan0 100#8F31820000000000
(1706000010.870000) vcan0 100#D731820000000000
(1706000010.880000) vcan0 100#1D32820000000000
(1706000010.890000) vcan0 100#2E32820000000000
(1706000010.900000) vcan0 100#3431820000000000
(1706000010.910000) vcan0 100#5331820000000000
(1706000010.920000) vcan0 100#6D31820000000000
(1706000010.930000) vcan0 100#3E31820000000000
(1706000010.940000) vcan0 100#E030820000000000
(1706000010.950000) vcan0 100#9331820000000000
(1706000010.960000) vcan0 100#D131820000000000
(1706000010.970000) vcan0 100#FA30820000000000
(1706000010.980000) vcan0 100#BD30820000000000
(1706000010.990000) vcan0 100#7B31820000000000
(1706000011.000000) vcan0 100#2131820000000000
(1706000011.010000) vcan0 100#5730820000000000
(1706000011.020000) vcan0 100#8930820000000000
(1706000011.030000) vcan0 100#0D31820000000000
(1706000011.040000) vcan0 100#9730820000000000
(1706000011.050000) vcan0 100#AC2F820000000000
(1706000011.060000) vcan0 100#8C30820000000000
(1706000011.070000) vcan0 100#762F820000000000
(1706000011.080000) vcan0 100#3A30820000000000
(1706000011.090000) vcan0 100#2930820000000000
(1706000011.100000) vcan0 100#312F820000000000
(1706000011.110000) vcan0 100#5E2F820000000000
(1706000011.120000) vcan0 100#362F820000000000
(1706000011.130000) vcan0 100#FF2E820000000000
(1706000011.140000) vcan0 100#672F820000000000
(1706000011.150000) vcan0 100#932E820000000000
(1706000011.160000) vcan0 100#902E820000000000
(1706000011.170000) vcan0 100#C82E820000000000
(1706000011.180000) vcan0 100#A32E820000000000
(1706000011.190000) vcan0 100#402E820000000000
(1706000011.200000) vcan0 100#472F820000000000
(1706000011.210000) vcan0 100#B82E820000000000
(1706000011.220000) vcan0 100#5B2E820000000000
(1706000011.230000) vcan0 100#262E820000000000
(1706000011.240000) vcan0 100#B82D820000000000
(1706000011.250000) vcan0 100#1D2E820000000000
(1706000011.260000) vcan0 100#8A2D820000000000
(1706000011.270000) vcan0 100#AC2D820000000000
(1706000011.280000) vcan0 100#0D2E820000000000
(1706000011.290000) vcan0 100#482D820000000000
(1706000011.300000) vcan0 100#572E820000000000
(1706000011.310000) vcan0 100#CA2D820000000000
(1706000011.320000) vcan0 100#4A2D820000000000
(1706000011.330000) vcan0 100#DC2D820000000000
(1706000011.340000) vcan0 100#FB2D820000000000
(1706000011.350000) vcan0 100#FC2C820000000000
(1706000011.360000) vcan0 100#B82C820000000000
(1706000011.370000) vcan0 100#AC2D820000000000
(1706000011.380000) vcan0 100#A62C820000000000
(1706000011.390000) vcan0 100#D32C820000000000
(1706000011.400000) vcan0 100#622C820000000000
(1706000011.410000) vcan0 100#142D820000000000
(1706000011.420000) vcan0 100#032C820000000000
(1706000011.430000) vcan0 100#932C820000000000
(1706000011.440000) vcan0 100#992C820000000000
(1706000011.450000) vcan0 100#E02C820000000000
(1706000011.460000) vcan0 100#712C820000000000
(1706000011.470000) vcan0 100#C62B820000000000
(1706000011.480000) vcan0 100#672C820000000000
(1706000011.490000) vcan0 100#BE2B820000000000
(1706000011.500000) vcan0 100#F42B820000000000
(1706000011.510000) vcan0 100#E42B820000000000
(1706000011.520000) vcan0 100#F92B820000000000
(1706000011.530000) vcan0 100#282C820000000000
(1706000011.540000) vcan0 100#402B820000000000
(1706000011.550000) vcan0 100#DE2B820000000000
(1706000011.560000) vcan0 100#412B820000000000
(1706000011.570000) vcan0 100#E82A820000000000
(1706000011.580000) vcan0 100#0E2B820000000000
(1706000011.590000) vcan0 100#572A820000000000
(1706000011.600000) vcan0 100#082B820000000000
(1706000011.610000) vcan0 100#EC2A820000000000
(1706000011.620000) vcan0 100#4A2B820000000000
(1706000011.630000) vcan0 100#652A820000000000
(1706000011.640000) vcan0 100#142B820000000000
(1706000011.650000) vcan0 100#AC29820000000000
(1706000011.660000) vcan0 100#442A820000000000
(1706000011.670000) vcan0 100#442A820000000000
(1706000011.680000) vcan0 100#FD29820000000000
(1706000011.690000) vcan0 100#582A820000000000
(1706000011.700000) vcan0 100#E129820000000000
(1706000011.710000) vcan0 100#2129820000000000
(1706000011.720000) vcan0 100#9329820000000000
(1706000011.730000) vcan0 100#1229820000000000
(1706000011.740000) vcan0 100#0329820000000000
(1706000011.750000) vcan0 100#5A29820000000000
(1706000011.760000) vcan0 100#4C29820000000000
(1706000011.770000) vcan0 100#2529820000000000
(1706000011.780000) vcan0 100#E428820000000000
(1706000011.790000) vcan0 100#7929820000000000
(1706000011.800000) vcan0 100#7029820000000000
(1706000011.810000) vcan0 100#1C29820000000000
(1706000011.820000) vcan0 100#7029820000000000
(1706000011.830000) vcan0 100#3C28820000000000
(1706000011.840000) vcan0 100#AD28820000000000
(1706000011.850000) vcan0 100#2228820000000000
(1706000011.860000) vcan0 100#FA27820000000000
(1706000011.870000) vcan0 100#3B28820000000000
(1706000011.880000) vcan0 100#6428820000000000
(1706000011.890000) vcan0 100#4528820000000000
(1706000011.900000) vcan0 100#5628820000000000
(1706000011.910000) vcan0 100#5028820000000000
(1706000011.920000) vcan0 100#4627820000000000
(1706000011.930000) vcan0 100#4C28820000000000
(1706000011.940000) vcan0 100#7527820000000000
(1706000011.950000) vcan0 100#4827820000000000
(1706000011.960000) vcan0 100#8F27820000000000
(1706000011.970000) vcan0 100#9127820000000000
(1706000011.980000) vcan0 100#7727820000000000
(1706000011.990000) vcan0 100#BC27820000000000
(1706000012.000000) vcan0 100#9A27820000000000
(1706000012.010000) vcan0 100#CE26820000000000
(1706000012.020000) vcan0 100#6D26820000000000
(1706000012.030000) vcan0 100#6226820000000000
(1706000012.040000) vcan0 100#6326820000000000
(1706000012.050000) vcan0 100#C026820000000000
(1706000012.060000) vcan0 100#2726820000000000
(1706000012.070000) vcan0 100#2226820000000000
(1706000012.080000) vcan0 100#BE26820000000000
(1706000012.090000) vcan0 100#1427820000000000
(1706000012.100000) vcan0 100#4B26820000000000
(1706000012.110000) vcan0 100#F725820000000000
(1706000012.120000) vcan0 100#8625820000000000
(1706000012.130000) vcan0 100#6025820000000000
(1706000012.140000) vcan0 100#6626820000000000
(1706000012.150000) vcan0 100#E425820000000000
(1706000012.160000) vcan0 100#0D26820000000000
(1706000012.170000) vcan0 100#2E26820000000000
(1706000012.180000) vcan0 100#0E25820000000000
(1706000012.190000) vcan0 100#E825820000000000
(1706000012.200000) vcan0 100#2725820000000000
(1706000012.210000) vcan0 100#ED24820000000000
(1706000012.220000) vcan0 100#A225820000000000
(1706000012.230000) vcan0 100#4925820000000000
(1706000012.240000) vcan0 100#9A24820000000000
(1706000012.250000) vcan0 100#7F25820000000000
(1706000012.260000) vcan0 100#6925820000000000
(1706000012.270000) vcan0 100#3025820000000000
(1706000012.280000) vcan0 100#7A25820000000000
(1706000012.290000) vcan0 100#2D25820000000000
(1706000012.300000) vcan0 100#5D24830000000000
(1706000012.310000) vcan0 100#7E24820000000000
(1706000012.320000) vcan0 100#EB24820000000000
(1706000012.330000) vcan0 100#1425820000000000
(1706000012.340000) vcan0 100#F523820000000000
(1706000012.350000) vcan0 100#5C24820000000000
(1706000012.360000) vcan0 100#7324820000000000
(1706000012.370000) vcan0 100#9F23820000000000
(1706000012.380000) vcan0 100#9923820000000000
(1706000012.390000) vcan0 100#5123820000000000
(1706000012.400000) vcan0 100#8B23820000000000
(1706000012.410000) vcan0 100#8623820000000000
(1706000012.420000) vcan0 100#6623820000000000
(1706000012.430000) vcan0 100#1A24830000000000
(1706000012.440000) vcan0 100#C723820000000000
(1706000012.450000) vcan0 100#1724830000000000
(1706000012.460000) vcan0 100#F423830000000000
(1706000012.470000) vcan0 100#CE23820000000000
(1706000012.480000) vcan0 100#BA23820000000000
(1706000012.490000) vcan0 100#6F23830000000000
(1706000012.500000) vcan0 100#6D23820000000000
(1706000012.510000) vcan0 100#FA22820000000000
(1706000012.520000) vcan0 100#9922820000000000
(1706000012.530000) vcan0 100#C622820000000000
(1706000012.540000) vcan0 100#4A23820000000000
(1706000012.550000) vcan0 100#B622820000000000
(1706000012.560000) vcan0 100#3723820000000000
(1706000012.570000) vcan0 100#2923820000000000
(1706000012.580000) vcan0 100#C821830000000000
(1706000012.590000) vcan0 100#B622830000000000
(1706000012.600000) vcan0 100#4222820000000000
(1706000012.610000) vcan0 100#0C22820000000000
(1706000012.620000) vcan0 100#3722820000000000
(1706000012.630000) vcan0 100#0022820000000000
(1706000012.640000) vcan0 100#B421830000000000
(1706000012.650000) vcan0 100#BA21820000000000
(1706000012.660000) vcan0 100#F821820000000000
(1706000012.670000) vcan0 100#9721830000000000
(1706000012.680000) vcan0 100#1D21820000000000
(1706000012.690000) vcan0 100#0D22820000000000
(1706000012.700000) vcan0 100#1321830000000000
(1706000012.710000) vcan0 100#7021820000000000
(1706000012.720000) vcan0 100#1422820000000000
(1706000012.730000) vcan0 100#A321820000000000
(1706000012.740000) vcan0 100#8321820000000000
(1706000012.750000) vcan0 100#D521820000000000
(1706000012.760000) vcan0 100#6121820000000000
(1706000012.770000) vcan0 100#EC20830000000000
(1706000012.780000) vcan0 100#9120820000000000
(1706000012.790000) vcan0 100#B120830000000000
(1706000012.800000) vcan0 100#8620830000000000
(1706000012.810000) vcan0 100#1A21820000000000
(1706000012.820000) vcan0 100#B820820000000000
(1706000012.830000) vcan0 100#4F20830000000000
(1706000012.840000) vcan0 100#F11F830000000000
(1706000012.850000) vcan0 100#FC20830000000000
(1706000012.860000) vcan0 100#6020820000000000
(1706000012.870000) vcan0 100#D31F820000000000
(1706000012.880000) vcan0 100#AA20820000000000
(1706000012.890000) vcan0 100#0620830000000000
(1706000012.900000) vcan0 100#B71F830000000000
(1706000012.910000) vcan0 100#7F20820000000000
(1706000012.920000) vcan0 100#C220820000000000
(1706000012.930000) vcan0 100#0F20820000000000
(1706000012.940000) vcan0 100#2820820000000000
(1706000012.950000) vcan0 100#3120830000000000
(1706000012.960000) vcan0 100#571F820000000000
(1706000012.970000) vcan0 100#0320830000000000
(1706000012.980000) vcan0 100#201F820000000000
(1706000012.990000) vcan0 100#FA1F830000000000
(1706000013.000000) vcan0 100#681F830000000000
(1706000013.010000) vcan0 100#3F1F820000000000
(1706000013.020000) vcan0 100#221F820000000000
(1706000013.030000) vcan0 100#731F830000000000
(1706000013.040000) vcan0 100#761F830000000000
(1706000013.050000) vcan0 100#831F830000000000
(1706000013.060000) vcan0 100#681F820000000000
(1706000013.070000) vcan0 100#271F830000000000
(1706000013.080000) vcan0 100#681F820000000000
(1706000013.090000) vcan0 100#641E830000000000
(1706000013.100000) vcan0 100#921F830000000000
(1706000013.110000) vcan0 100#5A1E830000000000
(1706000013.120000) vcan0 100#F41E830000000000
(1706000013.130000) vcan0 100#6C1F830000000000
(1706000013.140000) vcan0 100#4D1F820000000000
(1706000013.150000) vcan0 100#241F830000000000
(1706000013.160000) vcan0 100#661E830000000000
(1706000013.170000) vcan0 100#E31E830000000000
(1706000013.180000) vcan0 100#D71E820000000000
(1706000013.190000) vcan0 100#D11D820000000000
(1706000013.200000) vcan0 100#B81D820000000000
(1706000013.210000) vcan0 100#B11E830000000000
(1706000013.220000) vcan0 100#6A1E830000000000
(1706000013.230000) vcan0 100#101E830000000000
(1706000013.240000) vcan0 100#8C1D830000000000
(1706000013.250000) vcan0 100#3A1E830000000000
(1706000013.260000) vcan0 100#BF1D830000000000
(1706000013.270000) vcan0 100#8C1D830000000000
(1706000013.280000) vcan0 100#F31D830000000000
(1706000013.290000) vcan0 100#071E830000000000
(1706000013.300000) vcan0 100#091E820000000000
(1706000013.310000) vcan0 100#011E830000000000
(1706000013.320000) vcan0 100#271E820000000000
(1706000013.330000) vcan0 100#0E1D830000000000
(1706000013.340000) vcan0 100#811D830000000000
(1706000013.350000) vcan0 100#411D830000000000
(1706000013.360000) vcan0 100#CB1D820000000000
(1706000013.370000) vcan0 100#B21D830000000000
(1706000013.380000) vcan0 100#E51C830000000000
(1706000013.390000) vcan0 100#561D830000000000
(1706000013.400000) vcan0 100#8E1D830000000000
(1706000013.410000) vcan0 100#B01C830000000000
(1706000013.420000) vcan0 100#D51C830000000000
(1706000013.430000) vcan0 100#781D820000000000
(1706000013.440000) vcan0 100#781D830000000000
(1706000013.450000) vcan0 100#651C830000000000
(1706000013.460000) vcan0 100#0D1D820000000000
(1706000013.470000) vcan0 100#D51C830000000000
(1706000013.480000) vcan0 100#D81C830000000000
(1706000013.490000) vcan0 100#9D1C830000000000
(1706000013.500000) vcan0 100#331C830000000000
(1706000013.510000) vcan0 100#011D830000000000
(1706000013.520000) vcan0 100#A91C830000000000
(1706000013.530000) vcan0 100#1A1D830000000000
(1706000013.540000) vcan0 100#841C830000000000
(1706000013.550000) vcan0 100#061C830000000000
(1706000013.560000) vcan0 100#F31C830000000000
(1706000013.570000) vcan0 100#FB1C830000000000
(1706000013.580000) vcan0 100#411C830000000000
(1706000013.590000) vcan0 100#341C830000000000
(1706000013.600000) vcan0 100#F51B830000000000
(1706000013.610000) vcan0 100#0D1C830000000000
(1706000013.620000) vcan0 100#BC1C830000000000
(1706000013.630000) vcan0 100#8E1C830000000000
(1706000013.640000) vcan0 100#B71C830000000000
(1706000013.650000) vcan0 100#FF1B830000000000
(1706000013.660000) vcan0 100#7A1C830000000000
(1706000013.670000) vcan0 100#081C830000000000
(1706000013.680000) vcan0 100#811B830000000000
(1706000013.690000) vcan0 100#9A1B830000000000
(1706000013.700000) vcan0 100#C71B830000000000
(1706000013.710000) vcan0 100#C61B830000000000
(1706000013.720000) vcan0 100#531B830000000000
(1706000013.730000) vcan0 100#0F1C830000000000
(1706000013.740000) vcan0 100#FB1A830000000000
(1706000013.750000) vcan0 100#401B830000000000
(1706000013.760000) vcan0 100#0B1C830000000000
(1706000013.770000) vcan0 100#281C830000000000
(1706000013.780000) vcan0 100#B61B830000000000
(1706000013.790000) vcan0 100#C41B830000000000
(1706000013.800000) vcan0 100#741B830000000000
(1706000013.810000) vcan0 100#5D1B830000000000
(1706000013.820000) vcan0 100#051C830000000000
(1706000013.830000) vcan0 100#BD1A830000000000
(1706000013.840000) vcan0 100#CE1B830000000000
(1706000013.850000) vcan0 100#7F1B830000000000
(1706000013.860000) vcan0 100#D51B830000000000
(1706000013.870000) vcan0 100#961A830000000000
(1706000013.880000) vcan0 100#8C1B830000000000
(1706000013.890000) vcan0 100#2A1B830000000000
(1706000013.900000) vcan0 100#AC1B830000000000
(1706000013.910000) vcan0 100#AB1A830000000000
(1706000013.920000) vcan0 100#601B830000000000
(1706000013.930000) vcan0 100#3F1B830000000000
(1706000013.940000) vcan0 100#931A830000000000
(1706000013.950000) vcan0 100#721A830000000000
(1706000013.960000) vcan0 100#EF1A830000000000
(1706000013.970000) vcan0 100#531A830000000000
(1706000013.980000) vcan0 100#9F1A830000000000
(1706000013.990000) vcan0 100#5B1B830000000000
(1706000014.000000) vcan0 100#6B1A830000000000
(1706000014.010000) vcan0 100#201A830000000000
(1706000014.020000) vcan0 100#DF1A830000000000
(1706000014.030000) vcan0 100#DB1A830000000000
(1706000014.040000) vcan0 100#031B830000000000
(1706000014.050000) vcan0 100#F519830000000000
(1706000014.060000) vcan0 100#4A1A830000000000
(1706000014.070000) vcan0 100#B31A830000000000
(1706000014.080000) vcan0 100#1A1B830000000000
(1706000014.090000) vcan0 100#441A830000000000
(1706000014.100000) vcan0 100#B51A830000000000
(1706000014.110000) vcan0 100#481A830000000000
(1706000014.120000) vcan0 100#CF19830000000000
(1706000014.130000) vcan0 100#BB1A830000000000
(1706000014.140000) vcan0 100#BD19830000000000
(1706000014.150000) vcan0 100#0B1A830000000000
(1706000014.160000) vcan0 100#641A830000000000
(1706000014.170000) vcan0 100#D519830000000000
(1706000014.180000) vcan0 100#7A19830000000000
(1706000014.190000) vcan0 100#A91A830000000000
(1706000014.200000) vcan0 100#9219830000000000
(1706000014.210000) vcan0 100#821A830000000000
(1706000014.220000) vcan0 100#6619830000000000
(1706000014.230000) vcan0 100#8B19830000000000
(1706000014.240000) vcan0 100#6B1A830000000000
(1706000014.250000) vcan0 100#4E19830000000000
(1706000014.260000) vcan0 100#7A19830000000000
(1706000014.270000) vcan0 100#7819830000000000
(1706000014.280000) vcan0 100#671A830000000000
(1706000014.290000) vcan0 100#041A830000000000
(1706000014.300000) vcan0 100#8C19830000000000
(1706000014.310000) vcan0 100#E019830000000000
(1706000014.320000) vcan0 100#7B19830000000000
(1706000014.330000) vcan0 100#5819830000000000
(1706000014.340000) vcan0 100#C619830000000000
(1706000014.350000) vcan0 100#211A830000000000
(1706000014.360000) vcan0 100#5E1A830000000000
(1706000014.370000) vcan0 100#7A19830000000000
(1706000014.380000) vcan0 100#A119830000000000
(1706000014.390000) vcan0 100#A219830000000000
(1706000014.400000) vcan0 100#2B19830000000000
(1706000014.410000) vcan0 100#3419830000000000
(1706000014.420000) vcan0 100#F419830000000000
(1706000014.430000) vcan0 100#3A1A830000000000
(1706000014.440000) vcan0 100#E619830000000000
(1706000014.450000) vcan0 100#2A1A830000000000
(1706000014.460000) vcan0 100#B619830000000000
(1706000014.470000) vcan0 100#E919830000000000
(1706000014.480000) vcan0 100#0019830000000000
(1706000014.490000) vcan0 100#0E19830000000000
(1706000014.500000) vcan0 100#D519830000000000
(1706000014.510000) vcan0 100#DF19830000000000
(1706000014.520000) vcan0 100#0019830000000000
(1706000014.530000) vcan0 100#CC19830000000000
(1706000014.540000) vcan0 100#ED19830000000000
(1706000014.550000) vcan0 100#9E19830000000000
(1706000014.560000) vcan0 100#6A19830000000000
(1706000014.570000) vcan0 100#0019830000000000
(1706000014.580000) vcan0 100#D319830000000000
(1706000014.590000) vcan0 100#0619830000000000
(1706000014.600000) vcan0 100#0019830000000000
(1706000014.610000) vcan0 100#0019830000000000
(1706000014.620000) vcan0 100#0019830000000000
(1706000014.630000) vcan0 100#0019830000000000
(1706000014.640000) vcan0 100#8519830000000000
(1706000014.650000) vcan0 100#AE19830000000000
(1706000014.660000) vcan0 100#0019830000000000
(1706000014.670000) vcan0 100#C219830000000000
(1706000014.680000) vcan0 100#A619830000000000
(1706000014.690000) vcan0 100#CC19830000000000
(1706000014.700000) vcan0 100#C319830000000000
(1706000014.710000) vcan0 100#0019830000000000
(1706000014.720000) vcan0 100#0019830000000000
(1706000014.730000) vcan0 100#BE19830000000000
(1706000014.740000) vcan0 100#BF19830000000000
(1706000014.750000) vcan0 100#0019830000000000
(1706000014.760000) vcan0 100#5D19830000000000
(1706000014.770000) vcan0 100#7C19830000000000
(1706000014.780000) vcan0 100#3419830000000000
(1706000014.790000) vcan0 100#0019830000000000
(1706000014.800000) vcan0 100#0019830000000000
(1706000014.810000) vcan0 100#AE19830000000000
(1706000014.820000) vcan0 100#0019830000000000
(1706000014.830000) vcan0 100#B019830000000000
(1706000014.840000) vcan0 100#2F19830000000000
(1706000014.850000) vcan0 100#AE19830000000000
(1706000014.860000) vcan0 100#2019830000000000
(1706000014.870000) vcan0 100#0019830000000000
(1706000014.880000) vcan0 100#0019830000000000
(1706000014.890000) vcan0 100#0019830000000000
(1706000014.900000) vcan0 100#0019830000000000
(1706000014.910000) vcan0 100#3419830000000000
(1706000014.920000) vcan0 100#0019830000000000
(1706000014.930000) vcan0 100#0019830000000000
(1706000014.940000) vcan0 100#0019830000000000
(1706000014.950000) vcan0 100#0019830000000000
(1706000014.960000) vcan0 100#5319830000000000
(1706000014.970000) vcan0 100#8819830000000000
(1706000014.980000) vcan0 100#0019830000000000
(1706000014.990000) vcan0 100#0019830000000000
(1706000015.000000) vcan0 100#8019830000000000
(1706000015.010000) vcan0 100#4219830000000000
(1706000015.020000) vcan0 100#0019830000000000
(1706000015.030000) vcan0 100#0019830000000000
(1706000015.040000) vcan0 100#A019830000000000
(1706000015.050000) vcan0 100#0019830000000000
(1706000015.060000) vcan0 100#5319830000000000
(1706000015.070000) vcan0 100#8E19830000000000
(1706000015.080000) vcan0 100#2419830000000000
(1706000015.090000) vcan0 100#0019830000000000
(1706000015.100000) vcan0 100#A019830000000000
(1706000015.110000) vcan0 100#8E19830000000000
(1706000015.120000) vcan0 100#0019830000000000
(1706000015.130000) vcan0 100#0019830000000000
(1706000015.140000) vcan0 100#5719830000000000
(1706000015.150000) vcan0 100#0019830000000000
(1706000015.160000) vcan0 100#0019830000000000
(1706000015.170000) vcan0 100#2619830000000000
(1706000015.180000) vcan0 100#0019830000000000
(1706000015.190000) vcan0 100#0019830000000000
(1706000015.200000) vcan0 100#4A19830000000000
(1706000015.210000) vcan0 100#0019830000000000
(1706000015.220000) vcan0 100#0019830000000000
(1706000015.230000) vcan0 100#0019830000000000
(1706000015.240000) vcan0 100#0019830000000000
(1706000015.250000) vcan0 100#1719830000000000
(1706000015.260000) vcan0 100#0019830000000000
(1706000015.270000) vcan0 100#0019830000000000
(1706000015.280000) vcan0 100#0019830000000000
(1706000015.290000) vcan0 100#0019830000000000
(1706000015.300000) vcan0 100#0019830000000000
(1706000015.310000) vcan0 100#0019830000000000
(1706000015.320000) vcan0 100#6719830000000000
(1706000015.330000) vcan0 100#0019830000000000
(1706000015.340000) vcan0 100#D819830000000000
(1706000015.350000) vcan0 100#4819830000000000
(1706000015.360000) vcan0 100#A819830000000000
(1706000015.370000) vcan0 100#4819830000000000
(1706000015.380000) vcan0 100#3619830000000000
(1706000015.390000) vcan0 100#3A19830000000000
(1706000015.400000) vcan0 100#D319830000000000
(1706000015.410000) vcan0 100#4A19830000000000
(1706000015.420000) vcan0 100#B619830000000000
(1706000015.430000) vcan0 100#7B19830000000000
(1706000015.440000) vcan0 100#AE19830000000000
(1706000015.450000) vcan0 100#021A830000000000
(1706000015.460000) vcan0 100#C819830000000000
(1706000015.470000) vcan0 100#4519830000000000
(1706000015.480000) vcan0 100#4D19830000000000
(1706000015.490000) vcan0 100#9519830000000000
(1706000015.500000) vcan0 100#1719830000000000
(1706000015.510000) vcan0 100#021A830000000000
(1706000015.520000) vcan0 100#4E19830000000000
(1706000015.530000) vcan0 100#3C19830000000000
(1706000015.540000) vcan0 100#7019830000000000
(1706000015.550000) vcan0 100#E819830000000000
(1706000015.560000) vcan0 100#9019830000000000
(1706000015.570000) vcan0 100#6F19830000000000
(1706000015.580000) vcan0 100#B119830000000000
(1706000015.590000) vcan0 100#311A830000000000
(1706000015.600000) vcan0 100#B219830000000000
(1706000015.610000) vcan0 100#5619830000000000
(1706000015.620000) vcan0 100#6F19830000000000
(1706000015.630000) vcan0 100#8319830000000000
(1706000015.640000) vcan0 100#D819830000000000
(1706000015.650000) vcan0 100#6819830000000000
(1706000015.660000) vcan0 100#E319830000000000
(1706000015.670000) vcan0 100#2019830000000000
(1706000015.680000) vcan0 100#8D19830000000000
(1706000015.690000) vcan0 100#241A830000000000
(1706000015.700000) vcan0 100#601A830000000000
(1706000015.710000) vcan0 100#4A1A830000000000
(1706000015.720000) vcan0 100#9319830000000000
(1706000015.730000) vcan0 100#2B1A830000000000
(1706000015.740000) vcan0 100#6F1A830000000000
(1706000015.750000) vcan0 100#9A1A830000000000
(1706000015.760000) vcan0 100#6C1A830000000000
(1706000015.770000) vcan0 100#E319830000000000
(1706000015.780000) vcan0 100#9919830000000000
(1706000015.790000) vcan0 100#801A830000000000
(1706000015.800000) vcan0 100#701A830000000000
(1706000015.810000) vcan0 100#8C1A830000000000
(1706000015.820000) vcan0 100#AA19830000000000
(1706000015.830000) vcan0 100#2C1A830000000000
(1706000015.840000) vcan0 100#AC1A830000000000
(1706000015.850000) vcan0 100#9219830000000000
(1706000015.860000) vcan0 100#B41A830000000000
(1706000015.870000) vcan0 100#EE19830000000000
(1706000015.880000) vcan0 100#E11A830000000000
(1706000015.890000) vcan0 100#061A830000000000
(1706000015.900000) vcan0 100#5F1A830000000000
(1706000015.910000) vcan0 100#E119830000000000
(1706000015.920000) vcan0 100#401A830000000000
(1706000015.930000) vcan0 100#031A830000000000
(1706000015.940000) vcan0 100#9C1A830000000000
(1706000015.950000) vcan0 100#0F1A830000000000
(1706000015.960000) vcan0 100#E51A830000000000
(1706000015.970000) vcan0 100#4A1A830000000000
(1706000015.980000) vcan0 100#271A830000000000
(1706000015.990000) vcan0 100#4A1B830000000000
(1706000016.000000) vcan0 100#E31A830000000000
(1706000016.010000) vcan0 100#661A830000000000
(1706000016.020000) vcan0 100#171A830000000000
(1706000016.030000) vcan0 100#271B830000000000
(1706000016.040000) vcan0 100#621B830000000000
(1706000016.050000) vcan0 100#FE1A830000000000
(1706000016.060000) vcan0 100#8C1A830000000000
(1706000016.070000) vcan0 100#A81A830000000000
(1706000016.080000) vcan0 100#281B830000000000
(1706000016.090000) vcan0 100#D31A830000000000
(1706000016.100000) vcan0 100#B11A830000000000
(1706000016.110000) vcan0 100#501B830000000000
(1706000016.120000) vcan0 100#F71A830000000000
(1706000016.130000) vcan0 100#291B830000000000
(1706000016.140000) vcan0 100#A71B830000000000
(1706000016.150000) vcan0 100#6C1B830000000000
(1706000016.160000) vcan0 100#FB1A830000000000
(1706000016.170000) vcan0 100#B21A830000000000
(1706000016.180000) vcan0 100#871B830000000000
(1706000016.190000) vcan0 100#0C1B830000000000
(1706000016.200000) vcan0 100#F41B830000000000
(1706000016.210000) vcan0 100#F91A830000000000
(1706000016.220000) vcan0 100#0B1C830000000000
(1706000016.230000) vcan0 100#F31B830000000000
(1706000016.240000) vcan0 100#CC1B830000000000
(1706000016.250000) vcan0 100#EC1B830000000000
(1706000016.260000) vcan0 100#581C830000000000
(1706000016.270000) vcan0 100#971B830000000000
(1706000016.280000) vcan0 100#1A1B830000000000
(1706000016.290000) vcan0 100#E21B830000000000
(1706000016.300000) vcan0 100#241C830000000000
(1706000016.310000) vcan0 100#EB1B830000000000
(1706000016.320000) vcan0 100#791C830000000000
(1706000016.330000) vcan0 100#F81B830000000000
(1706000016.340000) vcan0 100#781C830000000000
(1706000016.350000) vcan0 100#9B1B830000000000
(1706000016.360000) vcan0 100#941B830000000000
(1706000016.370000) vcan0 100#8F1C830000000000
(1706000016.380000) vcan0 100#BF1B830000000000
(1706000016.390000) vcan0 100#001C830000000000
(1706000016.400000) vcan0 100#131C830000000000
(1706000016.410000) vcan0 100#0D1C830000000000
(1706000016.420000) vcan0 100#221C830000000000
(1706000016.430000) vcan0 100#211C830000000000
(1706000016.440000) vcan0 100#6B1C830000000000
(1706000016.450000) vcan0 100#9F1C830000000000
(1706000016.460000) vcan0 100#F71B830000000000
(1706000016.470000) vcan0 100#9A1C830000000000
(1706000016.480000) vcan0 100#7D1C830000000000
(1706000016.490000) vcan0 100#161C830000000000
(1706000016.500000) vcan0 100#3F1C830000000000
(1706000016.510000) vcan0 100#AC1C830000000000
(1706000016.520000) vcan0 100#681D830000000000
(1706000016.530000) vcan0 100#A51C830000000000
(1706000016.540000) vcan0 100#541D830000000000
(1706000016.550000) vcan0 100#2D1D830000000000
(1706000016.560000) vcan0 100#3B1D830000000000
(1706000016.570000) vcan0 100#C91C830000000000
(1706000016.580000) vcan0 100#B11C830000000000
(1706000016.590000) vcan0 100#301D830000000000
(1706000016.600000) vcan0 100#AF1C830000000000
(1706000016.610000) vcan0 100#7D1D830000000000
(1706000016.620000) vcan0 100#FF1D830000000000
(1706000016.630000) vcan0 100#C61C830000000000
(1706000016.640000) vcan0 100#4A1D830000000000
(1706000016.650000) vcan0 100#451D830000000000
(1706000016.660000) vcan0 100#251D830000000000
(1706000016.670000) vcan0 100#CC1D830000000000
(1706000016.680000) vcan0 100#F21D830000000000
(1706000016.690000) vcan0 100#391D830000000000
(1706000016.700000) vcan0 100#E91D830000000000
(1706000016.710000) vcan0 100#4A1E830000000000
(1706000016.720000) vcan0 100#9C1D830000000000
(1706000016.730000) vcan0 100#161E830000000000
(1706000016.740000) vcan0 100#8B1E830000000000
(1706000016.750000) vcan0 100#D91D830000000000
(1706000016.760000) vcan0 100#EE1D830000000000
(1706000016.770000) vcan0 100#CC1E830000000000
(1706000016.780000) vcan0 100#1A1E830000000000
(1706000016.790000) vcan0 100#9B1E830000000000
(1706000016.800000) vcan0 100#AC1E830000000000
(1706000016.810000) vcan0 100#F41D830000000000
(1706000016.820000) vcan0 100#AD1E830000000000
(1706000016.830000) vcan0 100#0B1F830000000000
(1706000016.840000) vcan0 100#A21E830000000000
(1706000016.850000) vcan0 100#531F830000000000
(1706000016.860000) vcan0 100#EA1E830000000000
(1706000016.870000) vcan0 100#061F830000000000
(1706000016.880000) vcan0 100#A91E830000000000
(1706000016.890000) vcan0 100#D91E830000000000
(1706000016.900000) vcan0 100#361F830000000000
(1706000016.910000) vcan0 100#BB1E830000000000
(1706000016.920000) vcan0 100#4A1F830000000000
(1706000016.930000) vcan0 100#461F830000000000
(1706000016.940000) vcan0 100#A51F830000000000
(1706000016.950000) vcan0 100#8D1F830000000000
(1706000016.960000) vcan0 100#C81E830000000000
(1706000016.970000) vcan0 100#F61E830000000000
(1706000016.980000) vcan0 100#1D1F830000000000
(1706000016.990000) vcan0 100#171F830000000000
(1706000017.000000) vcan0 100#491F830000000000
(1706000017.010000) vcan0 100#A01F830000000000
(1706000017.020000) vcan0 100#4A20830000000000
(1706000017.030000) vcan0 100#131F830000000000
(1706000017.040000) vcan0 100#6120830000000000
(1706000017.050000) vcan0 100#1E20830000000000
(1706000017.060000) vcan0 100#631F830000000000
(1706000017.070000) vcan0 100#5320830000000000
(1706000017.080000) vcan0 100#BF1F830000000000
(1706000017.090000) vcan0 100#D220830000000000
(1706000017.100000) vcan0 100#2A20830000000000
(1706000017.110000) vcan0 100#D51F830000000000
(1706000017.120000) vcan0 100#0F20830000000000
(1706000017.130000) vcan0 100#2820830000000000
(1706000017.140000) vcan0 100#EC1F830000000000
(1706000017.150000) vcan0 100#EC1F830000000000
(1706000017.160000) vcan0 100#D720830000000000
(1706000017.170000) vcan0 100#7D20830000000000
(1706000017.180000) vcan0 100#EB20830000000000
(1706000017.190000) vcan0 100#4320830000000000
(1706000017.200000) vcan0 100#7420830000000000
(1706000017.210000) vcan0 100#9821830000000000
(1706000017.220000) vcan0 100#DF20830000000000
(1706000017.230000) vcan0 100#8221830000000000
(1706000017.240000) vcan0 100#9321830000000000
(1706000017.250000) vcan0 100#8121830000000000
(1706000017.260000) vcan0 100#EA21830000000000
(1706000017.270000) vcan0 100#4321830000000000
(1706000017.280000) vcan0 100#DD21830000000000
(1706000017.290000) vcan0 100#1521830000000000
(1706000017.300000) vcan0 100#6521830000000000
(1706000017.310000) vcan0 100#EA21830000000000
(1706000017.320000) vcan0 100#6222830000000000
(1706000017.330000) vcan0 100#6222830000000000
(1706000017.340000) vcan0 100#C121830000000000
(1706000017.350000) vcan0 100#9F21830000000000
(1706000017.360000) vcan0 100#4E22830000000000
(1706000017.370000) vcan0 100#7722830000000000
(1706000017.380000) vcan0 100#4222840000000000
(1706000017.390000) vcan0 100#7A22830000000000
(1706000017.400000) vcan0 100#5922830000000000
(1706000017.410000) vcan0 100#D621830000000000
(1706000017.420000) vcan0 100#1F22830000000000
(1706000017.430000) vcan0 100#C822830000000000
(1706000017.440000) vcan0 100#1523830000000000
(1706000017.450000) vcan0 100#5C23830000000000
(1706000017.460000) vcan0 100#F622830000000000
(1706000017.470000) vcan0 100#5223830000000000
(1706000017.480000) vcan0 100#6D23830000000000
(1706000017.490000) vcan0 100#FB22830000000000
(1706000017.500000) vcan0 100#B723830000000000
(1706000017.510000) vcan0 100#C322830000000000
(1706000017.520000) vcan0 100#1723830000000000
(1706000017.530000) vcan0 100#3E23830000000000
(1706000017.540000) vcan0 100#4E23840000000000
(1706000017.550000) vcan0 100#6123830000000000
(1706000017.560000) vcan0 100#8723830000000000
(1706000017.570000) vcan0 100#1023830000000000
(1706000017.580000) vcan0 100#C423830000000000
(1706000017.590000) vcan0 100#3423830000000000
(1706000017.600000) vcan0 100#0224830000000000
(1706000017.610000) vcan0 100#EF23830000000000
(1706000017.620000) vcan0 100#3D24840000000000
(1706000017.630000) vcan0 100#E523830000000000
(1706000017.640000) vcan0 100#C823830000000000
(1706000017.650000) vcan0 100#5324830000000000
(1706000017.660000) vcan0 100#4924830000000000
(1706000017.670000) vcan0 100#B324830000000000
(1706000017.680000) vcan0 100#D624830000000000
(1706000017.690000) vcan0 100#5824840000000000
(1706000017.700000) vcan0 100#4825830000000000
(1706000017.710000) vcan0 100#C124840000000000
(1706000017.720000) vcan0 100#2E24830000000000
(1706000017.730000) vcan0 100#6424840000000000
(1706000017.740000) vcan0 100#4625830000000000
(1706000017.750000) vcan0 100#3425830000000000
(1706000017.760000) vcan0 100#B925830000000000
(1706000017.770000) vcan0 100#2825840000000000
(1706000017.780000) vcan0 100#9825830000000000
(1706000017.790000) vcan0 100#4325840000000000
(1706000017.800000) vcan0 100#ED25830000000000
(1706000017.810000) vcan0 100#EC25830000000000
(1706000017.820000) vcan0 100#D925840000000000
(1706000017.830000) vcan0 100#3625830000000000
(1706000017.840000) vcan0 100#D725830000000000
(1706000017.850000) vcan0 100#7B26840000000000
(1706000017.860000) vcan0 100#F125830000000000
(1706000017.870000) vcan0 100#A126830000000000
(1706000017.880000) vcan0 100#3E26840000000000
(1706000017.890000) vcan0 100#B625830000000000
(1706000017.900000) vcan0 100#7226840000000000
(1706000017.910000) vcan0 100#6626830000000000
(1706000017.920000) vcan0 100#2327840000000000
(1706000017.930000) vcan0 100#ED26830000000000
(1706000017.940000) vcan0 100#4927840000000000
(1706000017.950000) vcan0 100#AC26830000000000
(1706000017.960000) vcan0 100#B426840000000000
(1706000017.970000) vcan0 100#4027830000000000
(1706000017.980000) vcan0 100#4627840000000000
(1706000017.990000) vcan0 100#6027840000000000
(1706000018.000000) vcan0 100#5A27830000000000
(1706000018.010000) vcan0 100#6E27830000000000
(1706000018.020000) vcan0 100#2227840000000000
(1706000018.030000) vcan0 100#1828840000000000
(1706000018.040000) vcan0 100#2728840000000000
(1706000018.050000) vcan0 100#E027830000000000
(1706000018.060000) vcan0 100#2B27830000000000
(1706000018.070000) vcan0 100#C227840000000000
(1706000018.080000) vcan0 100#1B28830000000000
(1706000018.090000) vcan0 100#4E28840000000000
(1706000018.100000) vcan0 100#C227840000000000
(1706000018.110000) vcan0 100#9128840000000000
(1706000018.120000) vcan0 100#9427830000000000
(1706000018.130000) vcan0 100#8E28830000000000
(1706000018.140000) vcan0 100#C228830000000000
(1706000018.150000) vcan0 100#3528830000000000
(1706000018.160000) vcan0 100#0F29840000000000
(1706000018.170000) vcan0 100#6728840000000000
(1706000018.180000) vcan0 100#2228840000000000
(1706000018.190000) vcan0 100#5128840000000000
(1706000018.200000) vcan0 100#4929840000000000
(1706000018.210000) vcan0 100#6129840000000000
(1706000018.220000) vcan0 100#C728840000000000
(1706000018.230000) vcan0 100#A429830000000000
(1706000018.240000) vcan0 100#8C29840000000000
(1706000018.250000) vcan0 100#4229840000000000
(1706000018.260000) vcan0 100#292A830000000000
(1706000018.270000) vcan0 100#AC29830000000000
(1706000018.280000) vcan0 100#5929840000000000
(1706000018.290000) vcan0 100#2C2A840000000000
(1706000018.300000) vcan0 100#552A840000000000
(1706000018.310000) vcan0 100#402A840000000000
(1706000018.320000) vcan0 100#6A2A840000000000
(1706000018.330000) vcan0 100#4C2A840000000000
(1706000018.340000) vcan0 100#E32A840000000000
(1706000018.350000) vcan0 100#E629840000000000
(1706000018.360000) vcan0 100#022A830000000000
(1706000018.370000) vcan0 100#8D2A840000000000
(1706000018.380000) vcan0 100#872A840000000000
(1706000018.390000) vcan0 100#362A840000000000
(1706000018.400000) vcan0 100#7A2A840000000000
(1706000018.410000) vcan0 100#332B830000000000
(1706000018.420000) vcan0 100#872A840000000000
(1706000018.430000) vcan0 100#7B2A840000000000
(1706000018.440000) vcan0 100#5A2B840000000000
(1706000018.450000) vcan0 100#472B840000000000
(1706000018.460000) vcan0 100#312B840000000000
(1706000018.470000) vcan0 100#3B2B840000000000
(1706000018.480000) vcan0 100#242B830000000000
(1706000018.490000) vcan0 100#AE2B840000000000
(1706000018.500000) vcan0 100#D22B830000000000
(1706000018.510000) vcan0 100#7B2B840000000000
(1706000018.520000) vcan0 100#BB2B840000000000
(1706000018.530000) vcan0 100#AC2B840000000000
(1706000018.540000) vcan0 100#322C840000000000
(1706000018.550000) vcan0 100#B22C840000000000
(1706000018.560000) vcan0 100#AC2B840000000000
(1706000018.570000) vcan0 100#5F2C840000000000
(1706000018.580000) vcan0 100#B32C840000000000
(1706000018.590000) vcan0 100#462D840000000000
(1706000018.600000) vcan0 100#7E2C840000000000
(1706000018.610000) vcan0 100#732D840000000000
(1706000018.620000) vcan0 100#FD2C840000000000
(1706000018.630000) vcan0 100#992D840000000000
(1706000018.640000) vcan0 100#F52C840000000000
(1706000018.650000) vcan0 100#282D830000000000
(1706000018.660000) vcan0 100#E02D840000000000
(1706000018.670000) vcan0 100#722D840000000000
(1706000018.680000) vcan0 100#112D840000000000
(1706000018.690000) vcan0 100#AD2D830000000000
(1706000018.700000) vcan0 100#202D840000000000
(1706000018.710000) vcan0 100#332E840000000000
(1706000018.720000) vcan0 100#D12D840000000000
(1706000018.730000) vcan0 100#132E840000000000
(1706000018.740000) vcan0 100#C62E840000000000
(1706000018.750000) vcan0 100#6C2E840000000000
(1706000018.760000) vcan0 100#A92E840000000000
(1706000018.770000) vcan0 100#5D2E840000000000
(1706000018.780000) vcan0 100#F42D840000000000
(1706000018.790000) vcan0 100#062F840000000000
(1706000018.800000) vcan0 100#D32E840000000000
(1706000018.810000) vcan0 100#7D2E840000000000
(1706000018.820000) vcan0 100#1A2F840000000000
(1706000018.830000) vcan0 100#5C2E840000000000
(1706000018.840000) vcan0 100#2C2F840000000000
(1706000018.850000) vcan0 100#632F840000000000
(1706000018.860000) vcan0 100#712F840000000000
(1706000018.870000) vcan0 100#D72E840000000000
(1706000018.880000) vcan0 100#FD2E840000000000
(1706000018.890000) vcan0 100#5B2F840000000000
(1706000018.900000) vcan0 100#1830840000000000
(1706000018.910000) vcan0 100#B02F840000000000
(1706000018.920000) vcan0 100#E62F840000000000
(1706000018.930000) vcan0 100#892F840000000000
(1706000018.940000) vcan0 100#8C30840000000000
(1706000018.950000) vcan0 100#DF30840000000000
(1706000018.960000) vcan0 100#9630840000000000
(1706000018.970000) vcan0 100#DA30840000000000
(1706000018.980000) vcan0 100#5F30840000000000
(1706000018.990000) vcan0 100#B930840000000000
(1706000019.000000) vcan0 100#3C30840000000000
(1706000019.010000) vcan0 100#FD30840000000000
(1706000019.020000) vcan0 100#9331840000000000
(1706000019.030000) vcan0 100#6731840000000000
(1706000019.040000) vcan0 100#F330840000000000
(1706000019.050000) vcan0 100#7831840000000000
(1706000019.060000) vcan0 100#E830840000000000
(1706000019.070000) vcan0 100#EF31840000000000
(1706000019.080000) vcan0 100#2431840000000000
(1706000019.090000) vcan0 100#2A32840000000000
(1706000019.100000) vcan0 100#6132840000000000
(1706000019.110000) vcan0 100#D631840000000000
(1706000019.120000) vcan0 100#B431840000000000
(1706000019.130000) vcan0 100#8B31840000000000
(1706000019.140000) vcan0 100#2F32840000000000
(1706000019.150000) vcan0 100#CB31840000000000
(1706000019.160000) vcan0 100#DC31840000000000
(1706000019.170000) vcan0 100#1033840000000000
(1706000019.180000) vcan0 100#8D32840000000000
(1706000019.190000) vcan0 100#7432840000000000
(1706000019.200000) vcan0 100#EB32840000000000
(1706000019.210000) vcan0 100#AE32840000000000
(1706000019.220000) vcan0 100#5B32840000000000
(1706000019.230000) vcan0 100#C232840000000000
(1706000019.240000) vcan0 100#2833840000000000
(1706000019.250000) vcan0 100#D932840000000000
(1706000019.260000) vcan0 100#FA33840000000000
(1706000019.270000) vcan0 100#5E33840000000000
(1706000019.280000) vcan0 100#BD33840000000000
(1706000019.290000) vcan0 100#EB33840000000000
(1706000019.300000) vcan0 100#5F34840000000000
(1706000019.310000) vcan0 100#0934840000000000
(1706000019.320000) vcan0 100#9E34840000000000
(1706000019.330000) vcan0 100#9C33840000000000
(1706000019.340000) vcan0 100#4F34840000000000
(1706000019.350000) vcan0 100#8434840000000000
(1706000019.360000) vcan0 100#A234840000000000
(1706000019.370000) vcan0 100#B034840000000000
(1706000019.380000) vcan0 100#6835840000000000
(1706000019.390000) vcan0 100#3535840000000000
(1706000019.400000) vcan0 100#8E34840000000000
(1706000019.410000) vcan0 100#5C35840000000000
(1706000019.420000) vcan0 100#1935840000000000
(1706000019.430000) vcan0 100#1C35840000000000
(1706000019.440000) vcan0 100#9535840000000000
(1706000019.450000) vcan0 100#E335840000000000
(1706000019.460000) vcan0 100#1D35840000000000
(1706000019.470000) vcan0 100#9B35840000000000
(1706000019.480000) vcan0 100#6736840000000000
(1706000019.490000) vcan0 100#8936840000000000
(1706000019.500000) vcan0 100#FA35840000000000
(1706000019.510000) vcan0 100#B835840000000000
(1706000019.520000) vcan0 100#9C35840000000000
(1706000019.530000) vcan0 100#B035840000000000
(1706000019.540000) vcan0 100#FC36840000000000
(1706000019.550000) vcan0 100#7D36840000000000
(1706000019.560000) vcan0 100#0436840000000000
(1706000019.570000) vcan0 100#8136840000000000
(1706000019.580000) vcan0 100#E236840000000000
(1706000019.590000) vcan0 100#6C37840000000000
(1706000019.600000) vcan0 100#2137840000000000
(1706000019.610000) vcan0 100#6337840000000000
(1706000019.620000) vcan0 100#7E37840000000000
(1706000019.630000) vcan0 100#6937840000000000
(1706000019.640000) vcan0 100#0E38840000000000
(1706000019.650000) vcan0 100#6737840000000000
(1706000019.660000) vcan0 100#B137840000000000
(1706000019.670000) vcan0 100#F637840000000000
(1706000019.680000) vcan0 100#6E37840000000000
(1706000019.690000) vcan0 100#7337840000000000
(1706000019.700000) vcan0 100#BE37840000000000
(1706000019.710000) vcan0 100#0F38840000000000
(1706000019.720000) vcan0 100#D537840000000000
(1706000019.730000) vcan0 100#E438840000000000
(1706000019.740000) vcan0 100#8B38840000000000
(1706000019.750000) vcan0 100#4838840000000000
(1706000019.760000) vcan0 100#3E39840000000000
(1706000019.770000) vcan0 100#4438840000000000
(1706000019.780000) vcan0 100#8938840000000000
(1706000019.790000) vcan0 100#7A38840000000000
(1706000019.800000) vcan0 100#9B38840000000000
(1706000019.810000) vcan0 100#E238840000000000
(1706000019.820000) vcan0 100#9239840000000000
(1706000019.830000) vcan0 100#E138840000000000
(1706000019.840000) vcan0 100#DF39840000000000
(1706000019.850000) vcan0 100#3039840000000000
(1706000019.860000) vcan0 100#8B3A840000000000
(1706000019.870000) vcan0 100#8539840000000000
(1706000019.880000) vcan0 100#383A840000000000
(1706000019.890000) vcan0 100#A13A840000000000
(1706000019.900000) vcan0 100#843A840000000000
(1706000019.910000) vcan0 100#B63A840000000000
(1706000019.920000) vcan0 100#723A840000000000
(1706000019.930000) vcan0 100#3F3A840000000000
(1706000019.940000) vcan0 100#303A840000000000
(1706000019.950000) vcan0 100#543B840000000000
(1706000019.960000) vcan0 100#D53A840000000000
(1706000019.970000) vcan0 100#7F3A840000000000
(1706000019.980000) vcan0 100#513B840000000000
(1706000019.990000) vcan0 100#A83B840000000000
(1706000020.000000) vcan0 100#D93A840000000000
(1706000020.010000) vcan0 100#FA3A840000000000
(1706000020.020000) vcan0 100#0B3C840000000000
(1706000020.030000) vcan0 100#143C840000000000
(1706000020.040000) vcan0 100#D63B840000000000
(1706000020.050000) vcan0 100#4A3B840000000000
(1706000020.060000) vcan0 100#A73B840000000000
(1706000020.070000) vcan0 100#873C840000000000
(1706000020.080000) vcan0 100#5C3C840000000000
(1706000020.090000) vcan0 100#B53C840000000000
(1706000020.100000) vcan0 100#E73B840000000000
(1706000020.110000) vcan0 100#883C840000000000
(1706000020.120000) vcan0 100#2A3D840000000000
(1706000020.130000) vcan0 100#4C3D840000000000
(1706000020.140000) vcan0 100#753C840000000000
(1706000020.150000) vcan0 100#643D840000000000
(1706000020.160000) vcan0 100#943C840000000000
(1706000020.170000) vcan0 100#6C3D840000000000
(1706000020.180000) vcan0 100#113D840000000000
(1706000020.190000) vcan0 100#F33C840000000000
(1706000020.200000) vcan0 100#323D840000000000
(1706000020.210000) vcan0 100#893D840000000000
(1706000020.220000) vcan0 100#713D840000000000
(1706000020.230000) vcan0 100#353E840000000000
(1706000020.240000) vcan0 100#5B3E840000000000
(1706000020.250000) vcan0 100#E53D840000000000
(1706000020.260000) vcan0 100#D73D840000000000
(1706000020.270000) vcan0 100#133E840000000000
(1706000020.280000) vcan0 100#B83E840000000000
(1706000020.290000) vcan0 100#B93E840000000000
(1706000020.300000) vcan0 100#893E840000000000
(1706000020.310000) vcan0 100#413E840000000000
(1706000020.320000) vcan0 100#B03E840000000000
(1706000020.330000) vcan0 100#003F840000000000
(1706000020.340000) vcan0 100#533F840000000000
(1706000020.350000) vcan0 100#C93F840000000000
(1706000020.360000) vcan0 100#B13E840000000000
(1706000020.370000) vcan0 100#F33F840000000000
(1706000020.380000) vcan0 100#DF3E840000000000
(1706000020.390000) vcan0 100#003F840000000000
(1706000020.400000) vcan0 100#863F840000000000
(1706000020.410000) vcan0 100#F23F840000000000
(1706000020.420000) vcan0 100#3040840000000000
(1706000020.430000) vcan0 100#9E40840000000000
(1706000020.440000) vcan0 100#4E40840000000000
(1706000020.450000) vcan0 100#CF3F840000000000
(1706000020.460000) vcan0 100#BE40840000000000
(1706000020.470000) vcan0 100#CA3F840000000000
(1706000020.480000) vcan0 100#9040840000000000
(1706000020.490000) vcan0 100#3140840000000000
(1706000020.500000) vcan0 100#6540840000000000
(1706000020.510000) vcan0 100#6340840000000000
(1706000020.520000) vcan0 100#5A41840000000000
(1706000020.530000) vcan0 100#EE40840000000000
(1706000020.540000) vcan0 100#3441840000000000
(1706000020.550000) vcan0 100#B140840000000000
(1706000020.560000) vcan0 100#1841840000000000
(1706000020.570000) vcan0 100#1142840000000000
(1706000020.580000) vcan0 100#3E42840000000000
(1706000020.590000) vcan0 100#DB41840000000000
(1706000020.600000) vcan0 100#6842840000000000
(1706000020.610000) vcan0 100#9841840000000000
(1706000020.620000) vcan0 100#7D41840000000000
(1706000020.630000) vcan0 100#DA41840000000000
(1706000020.640000) vcan0 100#A842840000000000
(1706000020.650000) vcan0 100#DD42840000000000
(1706000020.660000) vcan0 100#8E42840000000000
(1706000020.670000) vcan0 100#3343840000000000
(1706000020.680000) vcan0 100#0943840000000000
(1706000020.690000) vcan0 100#6743840000000000
(1706000020.700000) vcan0 100#D242840000000000
(1706000020.710000) vcan0 100#5442840000000000
(1706000020.720000) vcan0 100#7D42840000000000
(1706000020.730000) vcan0 100#DE43840000000000
(1706000020.740000) vcan0 100#EC42840000000000
(1706000020.750000) vcan0 100#0744840000000000
(1706000020.760000) vcan0 100#D542840000000000
(1706000020.770000) vcan0 100#4343840000000000
(1706000020.780000) vcan0 100#F443840000000000
(1706000020.790000) vcan0 100#3C43840000000000
(1706000020.800000) vcan0 100#E443840000000000
(1706000020.810000) vcan0 100#9244840000000000
(1706000020.820000) vcan0 100#BF44840000000000
(1706000020.830000) vcan0 100#CD44840000000000
(1706000020.840000) vcan0 100#EE43840000000000
(1706000020.850000) vcan0 100#F544840000000000
(1706000020.860000) vcan0 100#2444840000000000
(1706000020.870000) vcan0 100#D144840000000000
(1706000020.880000) vcan0 100#3844840000000000
(1706000020.890000) vcan0 100#1A45840000000000
(1706000020.900000) vcan0 100#1F45840000000000
(1706000020.910000) vcan0 100#2045840000000000
(1706000020.920000) vcan0 100#2645840000000000
(1706000020.930000) vcan0 100#4445840000000000
(1706000020.940000) vcan0 100#ED45840000000000
(1706000020.950000) vcan0 100#7845840000000000
(1706000020.960000) vcan0 100#2846840000000000
(1706000020.970000) vcan0 100#4F45840000000000
(1706000020.980000) vcan0 100#2E45840000000000
(1706000020.990000) vcan0 100#DD45840000000000
(1706000021.000000) vcan0 100#0046840000000000
(1706000021.010000) vcan0 100#5B46840000000000
(1706000021.020000) vcan0 100#DC46840000000000
(1706000021.030000) vcan0 100#4046840000000000
(1706000021.040000) vcan0 100#BC45840000000000
(1706000021.050000) vcan0 100#9F46840000000000
(1706000021.060000) vcan0 100#C446840000000000
(1706000021.070000) vcan0 100#C846840000000000
(1706000021.080000) vcan0 100#C746840000000000
(1706000021.090000) vcan0 100#BC46840000000000
(1706000021.100000) vcan0 100#9F46840000000000
(1706000021.110000) vcan0 100#F246840000000000
(1706000021.120000) vcan0 100#EB46840000000000
(1706000021.130000) vcan0 100#D146840000000000
(1706000021.140000) vcan0 100#0D47840000000000
(1706000021.150000) vcan0 100#3647840000000000
(1706000021.160000) vcan0 100#8947840000000000
(1706000021.170000) vcan0 100#3E47840000000000
(1706000021.180000) vcan0 100#5947840000000000
(1706000021.190000) vcan0 100#7C47840000000000
(1706000021.200000) vcan0 100#B648840000000000
(1706000021.210000) vcan0 100#2748840000000000
(1706000021.220000) vcan0 100#9F48840000000000
(1706000021.230000) vcan0 100#6A48840000000000
(1706000021.240000) vcan0 100#4A48840000000000
(1706000021.250000) vcan0 100#ED47840000000000
(1706000021.260000) vcan0 100#9948840000000000
